xrun: 23.03-s013: (c) Copyright 1995-2024 Cadence Design Systems, Inc.
TOOL:	xrun	23.03-s013: Started on May 12, 2026 at 09:03:33 CST
/home/project/eda/pkgs/cadence/xcelium/v23.03/tools.lnx86/bin/xrun
	-licqueue
	-f ahb_vip.f
		-uvm
		-incdir ./vip/common
		-incdir ./vip/interface
		-incdir ./vip/sva
		-incdir ./vip/base
		-incdir ./vip/master
		-incdir ./vip/slave
		-incdir ./bfm
		-incdir ./seq
		-incdir ./test
		./top/sim_top.sv
		./vip/common/ahb_package.svh
		./vip/interface/ahb_interface.sv
		./vip/sva/ahb_protocol_sva.sv
		./vip/sva/bind_ahb_protocol_sva.sv
		./bfm/ahb_slave_bfm.sv
		./seq/ahb_master_seq.sv
		./test/ahb_basic_rw_test.sv
	-access +r
	+UVM_TESTNAME=ahb_basic_rw_test
Recompiling... reason: file './bfm/ahb_slave_bfm.sv' is newer than expected.
	expected: Mon Apr 27 09:27:53 2026
	actual:   Tue May 12 09:03:28 2026
Compiling UVM packages (uvm_pkg.sv cdns_uvm_pkg.sv) using uvmhome location /home/project/eda/pkgs/cadence/xcelium/v23.03/tools/methodology/UVM/CDNS-1.1d
file: ./top/sim_top.sv
	package worklib.ahb_package:svh
		errors: 0, warnings: 0
	module worklib.sim_top:sv
		errors: 0, warnings: 0
file: ./bfm/ahb_slave_bfm.sv
	module worklib.ahb_slave_bfm:sv
		errors: 0, warnings: 0
file: ./test/ahb_basic_rw_test.sv
xmvlog: *W,SPDUSD: Include directory ./bfm given but not used.
	Total errors/warnings found outside modules and primitives:
		errors: 0, warnings: 1
		Caching library 'worklib' ....... Done
	Elaborating the design hierarchy:
	Top level design units:
		uvm_pkg
		cdns_uvmapi
		cdns_assert2uvm_pkg
		cdns_uvm_pkg
		ahb_package
		$unit_0x52f35626
		sim_top
		ahb_slave_bfm
		Caching library 'worklib' ....... Done
                            mem[addr_reg >> BYTE_OFFSET_BITS]
                                          |
xmelab: *W,BIGWIX (./bfm/ahb_slave_bfm.sv,48|42): Memory index truncation.
                            mem[addr_reg >> BYTE_OFFSET_BITS]
                                          |
xmelab: *W,BIGWIX (./bfm/ahb_slave_bfm.sv,52|42): Memory index truncation.
                            mem[addr_reg >> BYTE_OFFSET_BITS] <= vif.HWDATA;
                                          |
xmelab: *W,BIGWIX (./bfm/ahb_slave_bfm.sv,56|42): Memory index truncation.
                        `HSIZE_BYTE    : vif.HRDATA <= { '0, mem[addr_reg >> BYTE_OFFSET_BITS][addr_reg[1:0]*8 +: 8] };
                                                                           |
xmelab: *W,BIGWIX (./bfm/ahb_slave_bfm.sv,61|75): Memory index truncation.
                        `HSIZE_HALFWORD: vif.HRDATA <= { '0, mem[addr_reg >> BYTE_OFFSET_BITS][addr_reg[1]*16 +: 16] };
                                                                           |
xmelab: *W,BIGWIX (./bfm/ahb_slave_bfm.sv,62|75): Memory index truncation.
                        default        : vif.HRDATA <= mem[addr_reg >> BYTE_OFFSET_BITS];
                                                                     |
xmelab: *W,BIGWIX (./bfm/ahb_slave_bfm.sv,63|69): Memory index truncation.
	Building instance overlay tables: .................... Done
	Generating native compiled code:
		worklib.ahb_slave_bfm:sv <0x33ddf63e>
			streams:  15, words:  9212
		worklib.ahb_protocol_sva:sv <0x64eb7c21>
			streams:  59, words: 35244
		worklib.ahb_interface:sv <0x521184ab>
			streams: 882, words: 823099
	Building instance specific data structures.
	Loading native compiled code:     .................... Done
	Design hierarchy summary:
		                       Instances  Unique
		Modules:                       3       3
		Interfaces:                    2       1
		Verilog packages:              5       5
		Registers:                 14946   10449
		Scalar wires:                 12       -
		Vectored wires:                6       -
		Named events:                  4      12
		Always blocks:                88      88
		Initial blocks:              339     193
		Parallel blocks:              27      28
		Cont. assignments:             4       4
		Pseudo assignments:           13       -
		Assertions:                   17      17
		Covergroup Instances:          0       1
		Compilation units:             1       1
		SV Class declarations:       205     318
		SV Class specializations:    407     407
		Simulation timescale:        1ps
	Writing initial simulation snapshot: worklib.sim_top:sv
Loading snapshot worklib.sim_top:sv .................... Done
SVSEED default: 1
xcelium> source /home/project/eda/pkgs/cadence/xcelium/v23.03/tools/xcelium/files/xmsimrc
xcelium> source /home/project/eda/pkgs/cadence/xcelium/v23.03/tools/methodology/UVM/CDNS-1.1d/additions/sv/files/tcl/uvm_sim.tcl
xcelium> run
----------------------------------------------------------------
CDNS-UVM-1.1d (23.03-s013)
(C) 2007-2013 Mentor Graphics Corporation
(C) 2007-2013 Cadence Design Systems, Inc.
(C) 2006-2013 Synopsys, Inc.
(C) 2011-2013 Cypress Semiconductor Corp.
----------------------------------------------------------------

  ***********       IMPORTANT RELEASE NOTES         ************

  You are using a version of the UVM library that has been compiled
  with `UVM_NO_DEPRECATED undefined.
  See http://www.eda.org/svdb/view.php?id=3313 for more details.

  You are using a version of the UVM library that has been compiled
  with `UVM_OBJECT_MUST_HAVE_CONSTRUCTOR undefined.
  See http://www.eda.org/svdb/view.php?id=3770 for more details.

      (Specify +UVM_NO_RELNOTES to turn off this notice)

UVM_INFO @ 0: reporter [RNTST] Running test ahb_basic_rw_test...
UVM_INFO @ 0: reporter [UVMTOP] UVM testbench topology:
--------------------------------------------------------------
Name                       Type                    Size  Value
--------------------------------------------------------------
uvm_test_top               ahb_basic_rw_test       -     @2685
  env                      ahb_env                 -     @2745
    agt_mst                ahb_master_agent        -     @2776
      drv                  ahb_master_driver       -     @3042
        rsp_port           uvm_analysis_port       -     @3143
        seq_item_port      uvm_seq_item_pull_port  -     @3092
      mon                  ahb_master_monitor      -     @3009
        port               uvm_analysis_port       -     @3835
      seqr                 uvm_sequencer           -     @3174
        rsp_export         uvm_analysis_export     -     @3233
        seq_item_export    uvm_seq_item_pull_imp   -     @3781
        arbitration_queue  array                   0     -    
        lock_queue         array                   0     -    
        num_last_reqs      integral                32    'd1  
        num_last_rsps      integral                32    'd1  
    agt_slv                ahb_slave_agent         -     @2806
      drv                  ahb_slave_driver        -     @3926
        rsp_port           uvm_analysis_port       -     @4021
        seq_item_port      uvm_seq_item_pull_port  -     @3973
      mon                  ahb_slave_monitor       -     @3040
        port               uvm_analysis_port       -     @4698
      seqr                 uvm_sequencer           -     @4002
        rsp_export         uvm_analysis_export     -     @4107
        seq_item_export    uvm_seq_item_pull_imp   -     @4647
        arbitration_queue  array                   0     -    
        lock_queue         array                   0     -    
        num_last_reqs      integral                32    'd1  
        num_last_rsps      integral                32    'd1  
    cov                    ahb_coverage            -     @2866
      analysis_imp         uvm_analysis_imp        -     @2915
    scb                    ahb_scoreboard          -     @2836
      imp                  uvm_analysis_imp        -     @4765
--------------------------------------------------------------


#### Factory Configuration (*)

Instance Overrides:

  Requested Type    Override Path  Override Type     
  ----------------  -------------  ------------------
  ahb_driver_base   *agt_mst.*     ahb_master_driver
  ahb_driver_base   *agt_slv.*     ahb_slave_driver
  ahb_monitor_base  *agt_mst.*     ahb_master_monitor
  ahb_monitor_base  *agt_slv.*     ahb_slave_monitor

No type overrides are registered with this factory

All types registered with the factory: 52 total
(types without type names will not be printed)

  Type Name
  ---------
  ahb_agent_base
  ahb_basic_rw_test
  ahb_coverage
  ahb_driver_base
  ahb_env
  ahb_master_agent
  ahb_master_driver
  ahb_master_monitor
  ahb_master_seq
  ahb_monitor_base
  ahb_scoreboard
  ahb_seq_item
  ahb_slave_agent
  ahb_slave_driver
  ahb_slave_monitor
(*) Types with no associated type name will be printed as <unknown>

####

UVM_INFO ./vip/common/ahb_scoreboard.sv(72) @ 35: uvm_test_top.env.scb [DATA_MATCH] Read addr=0x0000000000000020 size=0: data=0x00000000 OK
UVM_INFO ./vip/common/ahb_scoreboard.sv(72) @ 45: uvm_test_top.env.scb [DATA_MATCH] Read addr=0x0000000000000021 size=0: data=0x00000000 OK
UVM_INFO ./vip/common/ahb_scoreboard.sv(72) @ 55: uvm_test_top.env.scb [DATA_MATCH] Read addr=0x0000000000000022 size=0: data=0x00000000 OK
UVM_INFO ./vip/common/ahb_scoreboard.sv(72) @ 65: uvm_test_top.env.scb [DATA_MATCH] Read addr=0x0000000000000023 size=0: data=0x00000000 OK
UVM_INFO ./vip/common/ahb_scoreboard.sv(72) @ 75: uvm_test_top.env.scb [DATA_MATCH] Read addr=0x0000000000000024 size=0: data=0x00000000 OK
UVM_INFO ./vip/common/ahb_scoreboard.sv(72) @ 85: uvm_test_top.env.scb [DATA_MATCH] Read addr=0x0000000000000025 size=0: data=0x00000000 OK
UVM_INFO ./vip/common/ahb_scoreboard.sv(72) @ 95: uvm_test_top.env.scb [DATA_MATCH] Read addr=0x0000000000000026 size=0: data=0x00000000 OK
UVM_INFO ./vip/common/ahb_scoreboard.sv(72) @ 105: uvm_test_top.env.scb [DATA_MATCH] Read addr=0x0000000000000027 size=0: data=0x00000000 OK
UVM_INFO ./vip/common/ahb_scoreboard.sv(72) @ 115: uvm_test_top.env.scb [DATA_MATCH] Read addr=0x0000000000000028 size=0: data=0x00000000 OK
UVM_INFO ./vip/common/ahb_scoreboard.sv(72) @ 125: uvm_test_top.env.scb [DATA_MATCH] Read addr=0x0000000000000029 size=0: data=0x00000000 OK
UVM_INFO ./vip/common/ahb_scoreboard.sv(72) @ 135: uvm_test_top.env.scb [DATA_MATCH] Read addr=0x000000000000002a size=0: data=0x00000000 OK
UVM_INFO ./vip/common/ahb_scoreboard.sv(72) @ 145: uvm_test_top.env.scb [DATA_MATCH] Read addr=0x000000000000002b size=0: data=0x00000000 OK
UVM_INFO ./vip/common/ahb_scoreboard.sv(72) @ 155: uvm_test_top.env.scb [DATA_MATCH] Read addr=0x000000000000002c size=0: data=0x00000000 OK
UVM_INFO ./vip/common/ahb_scoreboard.sv(72) @ 165: uvm_test_top.env.scb [DATA_MATCH] Read addr=0x000000000000002d size=0: data=0x00000000 OK
UVM_INFO ./vip/common/ahb_scoreboard.sv(72) @ 175: uvm_test_top.env.scb [DATA_MATCH] Read addr=0x000000000000002e size=0: data=0x00000000 OK
UVM_INFO ./vip/common/ahb_scoreboard.sv(72) @ 185: uvm_test_top.env.scb [DATA_MATCH] Read addr=0x0000000000000017 size=0: data=0x00000000 OK
UVM_INFO ./vip/common/ahb_scoreboard.sv(72) @ 195: uvm_test_top.env.scb [DATA_MATCH] Read addr=0x0000000000000018 size=0: data=0x00000000 OK
UVM_INFO ./vip/common/ahb_scoreboard.sv(72) @ 205: uvm_test_top.env.scb [DATA_MATCH] Read addr=0x0000000000000019 size=0: data=0x00000000 OK
UVM_INFO ./vip/common/ahb_scoreboard.sv(72) @ 215: uvm_test_top.env.scb [DATA_MATCH] Read addr=0x000000000000001a size=0: data=0x00000000 OK
UVM_INFO ./vip/common/ahb_scoreboard.sv(72) @ 225: uvm_test_top.env.scb [DATA_MATCH] Read addr=0x000000000000001b size=0: data=0x00000000 OK
UVM_INFO ./vip/common/ahb_scoreboard.sv(72) @ 235: uvm_test_top.env.scb [DATA_MATCH] Read addr=0x000000000000001c size=0: data=0x00000000 OK
UVM_INFO ./vip/common/ahb_scoreboard.sv(72) @ 245: uvm_test_top.env.scb [DATA_MATCH] Read addr=0x000000000000001d size=0: data=0x00000000 OK
UVM_INFO ./vip/common/ahb_scoreboard.sv(72) @ 255: uvm_test_top.env.scb [DATA_MATCH] Read addr=0x000000000000001e size=0: data=0x00000000 OK
UVM_INFO ./vip/common/ahb_scoreboard.sv(72) @ 265: uvm_test_top.env.scb [DATA_MATCH] Read addr=0x000000000000001f size=0: data=0x00000000 OK
UVM_INFO ./vip/common/ahb_scoreboard.sv(72) @ 275: uvm_test_top.env.scb [DATA_MATCH] Read addr=0x0000000000000020 size=0: data=0x00000000 OK
UVM_INFO ./vip/common/ahb_scoreboard.sv(72) @ 335: uvm_test_top.env.scb [DATA_MATCH] Read addr=0x00000000000000dc size=0: data=0x00000000 OK
UVM_INFO ./vip/common/ahb_scoreboard.sv(72) @ 345: uvm_test_top.env.scb [DATA_MATCH] Read addr=0x000000000000008a size=0: data=0x00000000 OK
UVM_INFO ./vip/common/ahb_scoreboard.sv(72) @ 355: uvm_test_top.env.scb [DATA_MATCH] Read addr=0x00000000000000c6 size=1: data=0x00000000 OK
UVM_INFO ./vip/common/ahb_scoreboard.sv(72) @ 515: uvm_test_top.env.scb [DATA_MATCH] Read addr=0x0000000000000070 size=1: data=0x00000000 OK
UVM_INFO ./vip/common/ahb_scoreboard.sv(72) @ 565: uvm_test_top.env.scb [DATA_MATCH] Read addr=0x00000000000000f4 size=2: data=0x65ee8a5c OK
UVM_INFO ./vip/common/ahb_scoreboard.sv(72) @ 575: uvm_test_top.env.scb [DATA_MATCH] Read addr=0x00000000000000b8 size=2: data=0x00000000 OK
UVM_INFO ./vip/common/ahb_scoreboard.sv(72) @ 585: uvm_test_top.env.scb [DATA_MATCH] Read addr=0x00000000000000bc size=2: data=0x00000000 OK
UVM_INFO ./vip/common/ahb_scoreboard.sv(72) @ 765: uvm_test_top.env.scb [DATA_MATCH] Read addr=0x0000000000000056 size=1: data=0x0000efe4 OK
UVM_INFO ./vip/common/ahb_scoreboard.sv(72) @ 775: uvm_test_top.env.scb [DATA_MATCH] Read addr=0x000000000000007c size=2: data=0x00000000 OK
UVM_INFO ./vip/common/ahb_scoreboard.sv(72) @ 785: uvm_test_top.env.scb [DATA_MATCH] Read addr=0x0000000000000080 size=2: data=0x00000000 OK
UVM_INFO ./vip/common/ahb_scoreboard.sv(72) @ 795: uvm_test_top.env.scb [DATA_MATCH] Read addr=0x0000000000000084 size=2: data=0x00000000 OK
UVM_INFO ./vip/common/ahb_scoreboard.sv(72) @ 805: uvm_test_top.env.scb [DATA_MATCH] Read addr=0x0000000000000088 size=2: data=0x00000000 OK
UVM_INFO ./vip/common/ahb_scoreboard.sv(72) @ 815: uvm_test_top.env.scb [DATA_MATCH] Read addr=0x000000000000008c size=2: data=0x00000000 OK
UVM_INFO ./vip/common/ahb_scoreboard.sv(72) @ 825: uvm_test_top.env.scb [DATA_MATCH] Read addr=0x0000000000000090 size=2: data=0x00000000 OK
UVM_INFO ./vip/common/ahb_scoreboard.sv(72) @ 835: uvm_test_top.env.scb [DATA_MATCH] Read addr=0x0000000000000094 size=2: data=0x00000000 OK
UVM_INFO ./vip/common/ahb_scoreboard.sv(72) @ 845: uvm_test_top.env.scb [DATA_MATCH] Read addr=0x0000000000000098 size=2: data=0x00000000 OK
UVM_INFO ./vip/common/ahb_scoreboard.sv(72) @ 855: uvm_test_top.env.scb [DATA_MATCH] Read addr=0x000000000000009c size=2: data=0x00000000 OK
UVM_INFO ./vip/common/ahb_scoreboard.sv(72) @ 865: uvm_test_top.env.scb [DATA_MATCH] Read addr=0x00000000000000a0 size=2: data=0x00000000 OK
UVM_INFO ./vip/common/ahb_scoreboard.sv(72) @ 875: uvm_test_top.env.scb [DATA_MATCH] Read addr=0x00000000000000a4 size=2: data=0x3c7a4c39 OK
UVM_INFO ./vip/common/ahb_scoreboard.sv(72) @ 885: uvm_test_top.env.scb [DATA_MATCH] Read addr=0x00000000000000a8 size=2: data=0x00000000 OK
UVM_INFO ./vip/common/ahb_scoreboard.sv(72) @ 895: uvm_test_top.env.scb [DATA_MATCH] Read addr=0x00000000000000ac size=2: data=0x00000000 OK
UVM_INFO ./vip/common/ahb_scoreboard.sv(72) @ 905: uvm_test_top.env.scb [DATA_MATCH] Read addr=0x00000000000000ec size=2: data=0x65ee8a5c OK
UVM_INFO ./vip/common/ahb_scoreboard.sv(72) @ 915: uvm_test_top.env.scb [DATA_MATCH] Read addr=0x0000000000000078 size=0: data=0x00000000 OK
UVM_INFO ./vip/common/ahb_scoreboard.sv(72) @ 995: uvm_test_top.env.scb [DATA_MATCH] Read addr=0x0000000000000094 size=2: data=0x00000000 OK
UVM_INFO ./vip/common/ahb_scoreboard.sv(72) @ 1015: uvm_test_top.env.scb [DATA_MATCH] Read addr=0x00000000000000b0 size=2: data=0x621791d6 OK
UVM_INFO ./vip/common/ahb_scoreboard.sv(72) @ 1025: uvm_test_top.env.scb [DATA_MATCH] Read addr=0x00000000000000b4 size=2: data=0x00000000 OK
UVM_INFO ./vip/common/ahb_scoreboard.sv(72) @ 1035: uvm_test_top.env.scb [DATA_MATCH] Read addr=0x00000000000000b8 size=2: data=0x00000000 OK
UVM_INFO ./vip/common/ahb_scoreboard.sv(72) @ 1045: uvm_test_top.env.scb [DATA_MATCH] Read addr=0x00000000000000bc size=2: data=0x00000000 OK
UVM_INFO ./vip/common/ahb_scoreboard.sv(72) @ 1055: uvm_test_top.env.scb [DATA_MATCH] Read addr=0x00000000000000c0 size=2: data=0x00000000 OK
UVM_INFO ./vip/common/ahb_scoreboard.sv(72) @ 1065: uvm_test_top.env.scb [DATA_MATCH] Read addr=0x00000000000000c4 size=2: data=0x00000000 OK
UVM_INFO ./vip/common/ahb_scoreboard.sv(72) @ 1075: uvm_test_top.env.scb [DATA_MATCH] Read addr=0x00000000000000c8 size=2: data=0x00000000 OK
UVM_INFO ./vip/common/ahb_scoreboard.sv(72) @ 1085: uvm_test_top.env.scb [DATA_MATCH] Read addr=0x00000000000000cc size=2: data=0x00000000 OK
UVM_INFO ./vip/common/ahb_scoreboard.sv(72) @ 1095: uvm_test_top.env.scb [DATA_MATCH] Read addr=0x00000000000000d0 size=2: data=0x00000000 OK
UVM_INFO ./vip/common/ahb_scoreboard.sv(72) @ 1105: uvm_test_top.env.scb [DATA_MATCH] Read addr=0x0000000000000006 size=1: data=0x00000000 OK
UVM_INFO ./vip/common/ahb_scoreboard.sv(72) @ 1115: uvm_test_top.env.scb [DATA_MATCH] Read addr=0x0000000000000008 size=1: data=0x00000000 OK
UVM_INFO ./vip/common/ahb_scoreboard.sv(72) @ 1125: uvm_test_top.env.scb [DATA_MATCH] Read addr=0x000000000000000a size=1: data=0x00000000 OK
UVM_INFO ./vip/common/ahb_scoreboard.sv(72) @ 1135: uvm_test_top.env.scb [DATA_MATCH] Read addr=0x000000000000000c size=1: data=0x00000000 OK
UVM_INFO ./vip/common/ahb_scoreboard.sv(72) @ 1145: uvm_test_top.env.scb [DATA_MATCH] Read addr=0x000000000000000e size=1: data=0x00000000 OK
UVM_INFO ./vip/common/ahb_scoreboard.sv(72) @ 1155: uvm_test_top.env.scb [DATA_MATCH] Read addr=0x0000000000000010 size=1: data=0x00000000 OK
UVM_INFO ./vip/common/ahb_scoreboard.sv(72) @ 1165: uvm_test_top.env.scb [DATA_MATCH] Read addr=0x0000000000000012 size=1: data=0x00000000 OK
UVM_INFO ./vip/common/ahb_scoreboard.sv(72) @ 1175: uvm_test_top.env.scb [DATA_MATCH] Read addr=0x0000000000000014 size=1: data=0x00000000 OK
UVM_INFO ./vip/common/ahb_scoreboard.sv(72) @ 1185: uvm_test_top.env.scb [DATA_MATCH] Read addr=0x0000000000000016 size=1: data=0x00000000 OK
UVM_INFO ./vip/common/ahb_scoreboard.sv(72) @ 1195: uvm_test_top.env.scb [DATA_MATCH] Read addr=0x0000000000000018 size=1: data=0x00000000 OK
UVM_INFO ./vip/common/ahb_scoreboard.sv(72) @ 1205: uvm_test_top.env.scb [DATA_MATCH] Read addr=0x000000000000001a size=1: data=0x00000000 OK
UVM_INFO ./vip/common/ahb_scoreboard.sv(72) @ 1215: uvm_test_top.env.scb [DATA_MATCH] Read addr=0x000000000000001c size=1: data=0x00000000 OK
UVM_INFO ./vip/common/ahb_scoreboard.sv(72) @ 1225: uvm_test_top.env.scb [DATA_MATCH] Read addr=0x000000000000001e size=1: data=0x00000000 OK
UVM_INFO ./vip/common/ahb_scoreboard.sv(72) @ 1245: uvm_test_top.env.scb [DATA_MATCH] Read addr=0x0000000000000016 size=1: data=0x00000000 OK
UVM_INFO ./vip/common/ahb_scoreboard.sv(72) @ 1255: uvm_test_top.env.scb [DATA_MATCH] Read addr=0x0000000000000018 size=1: data=0x00000000 OK
UVM_INFO ./vip/common/ahb_scoreboard.sv(72) @ 1265: uvm_test_top.env.scb [DATA_MATCH] Read addr=0x000000000000001a size=1: data=0x00000000 OK
UVM_INFO ./vip/common/ahb_scoreboard.sv(72) @ 1275: uvm_test_top.env.scb [DATA_MATCH] Read addr=0x000000000000001c size=1: data=0x00000000 OK
UVM_INFO ./vip/common/ahb_scoreboard.sv(72) @ 1285: uvm_test_top.env.scb [DATA_MATCH] Read addr=0x000000000000001e size=1: data=0x00000000 OK
UVM_INFO ./vip/common/ahb_scoreboard.sv(72) @ 1295: uvm_test_top.env.scb [DATA_MATCH] Read addr=0x0000000000000020 size=1: data=0x00000000 OK
UVM_INFO ./vip/common/ahb_scoreboard.sv(72) @ 1305: uvm_test_top.env.scb [DATA_MATCH] Read addr=0x0000000000000022 size=1: data=0x00000000 OK
UVM_INFO ./vip/common/ahb_scoreboard.sv(72) @ 1315: uvm_test_top.env.scb [DATA_MATCH] Read addr=0x0000000000000024 size=1: data=0x00000000 OK
UVM_INFO ./vip/common/ahb_scoreboard.sv(72) @ 1325: uvm_test_top.env.scb [DATA_MATCH] Read addr=0x0000000000000026 size=1: data=0x00000000 OK
UVM_INFO ./vip/common/ahb_scoreboard.sv(72) @ 1335: uvm_test_top.env.scb [DATA_MATCH] Read addr=0x0000000000000028 size=1: data=0x00000000 OK
UVM_INFO ./vip/common/ahb_scoreboard.sv(72) @ 1345: uvm_test_top.env.scb [DATA_MATCH] Read addr=0x000000000000002a size=1: data=0x0000853b OK
UVM_INFO ./vip/common/ahb_scoreboard.sv(72) @ 1355: uvm_test_top.env.scb [DATA_MATCH] Read addr=0x000000000000002c size=1: data=0x00003141 OK
UVM_INFO ./vip/common/ahb_scoreboard.sv(72) @ 1365: uvm_test_top.env.scb [DATA_MATCH] Read addr=0x000000000000002e size=1: data=0x0000853b OK
UVM_INFO ./vip/common/ahb_scoreboard.sv(72) @ 1375: uvm_test_top.env.scb [DATA_MATCH] Read addr=0x0000000000000030 size=1: data=0x00003141 OK
UVM_INFO ./vip/common/ahb_scoreboard.sv(72) @ 1385: uvm_test_top.env.scb [DATA_MATCH] Read addr=0x0000000000000032 size=1: data=0x0000853b OK
UVM_INFO ./vip/common/ahb_scoreboard.sv(72) @ 1395: uvm_test_top.env.scb [DATA_MATCH] Read addr=0x0000000000000034 size=1: data=0x00003141 OK
UVM_INFO ./vip/common/ahb_scoreboard.sv(72) @ 1695: uvm_test_top.env.scb [DATA_MATCH] Read addr=0x000000000000005c size=0: data=0x00000000 OK
UVM_INFO ./vip/common/ahb_scoreboard.sv(72) @ 1715: uvm_test_top.env.scb [DATA_MATCH] Read addr=0x00000000000000e4 size=2: data=0x00000000 OK
UVM_INFO ./vip/common/ahb_scoreboard.sv(72) @ 1825: uvm_test_top.env.scb [DATA_MATCH] Read addr=0x000000000000009b size=0: data=0x000000f3 OK
UVM_INFO ./vip/common/ahb_scoreboard.sv(72) @ 1835: uvm_test_top.env.scb [DATA_MATCH] Read addr=0x000000000000008e size=0: data=0x00000000 OK
UVM_INFO ./vip/common/ahb_scoreboard.sv(72) @ 1845: uvm_test_top.env.scb [DATA_MATCH] Read addr=0x000000000000008f size=0: data=0x00000000 OK
UVM_INFO ./vip/common/ahb_scoreboard.sv(72) @ 1855: uvm_test_top.env.scb [DATA_MATCH] Read addr=0x0000000000000090 size=0: data=0x00000000 OK
UVM_INFO ./vip/common/ahb_scoreboard.sv(72) @ 1865: uvm_test_top.env.scb [DATA_MATCH] Read addr=0x0000000000000002 size=1: data=0x00000000 OK
UVM_INFO ./vip/common/ahb_scoreboard.sv(72) @ 1875: uvm_test_top.env.scb [DATA_MATCH] Read addr=0x0000000000000006 size=0: data=0x00000000 OK
UVM_INFO ./vip/common/ahb_scoreboard.sv(72) @ 1885: uvm_test_top.env.scb [DATA_MATCH] Read addr=0x0000000000000007 size=0: data=0x00000000 OK
UVM_INFO ./vip/common/ahb_scoreboard.sv(72) @ 1895: uvm_test_top.env.scb [DATA_MATCH] Read addr=0x0000000000000008 size=0: data=0x00000000 OK
UVM_INFO ./vip/common/ahb_scoreboard.sv(72) @ 1905: uvm_test_top.env.scb [DATA_MATCH] Read addr=0x0000000000000009 size=0: data=0x00000000 OK
UVM_INFO ./vip/common/ahb_scoreboard.sv(72) @ 1915: uvm_test_top.env.scb [DATA_MATCH] Read addr=0x000000000000000a size=0: data=0x00000000 OK
UVM_INFO ./vip/common/ahb_scoreboard.sv(72) @ 1925: uvm_test_top.env.scb [DATA_MATCH] Read addr=0x000000000000000b size=0: data=0x00000000 OK
UVM_INFO ./vip/common/ahb_scoreboard.sv(72) @ 1935: uvm_test_top.env.scb [DATA_MATCH] Read addr=0x000000000000000c size=0: data=0x00000000 OK
UVM_INFO ./vip/common/ahb_scoreboard.sv(72) @ 1945: uvm_test_top.env.scb [DATA_MATCH] Read addr=0x000000000000000d size=0: data=0x00000000 OK
UVM_INFO ./vip/common/ahb_scoreboard.sv(72) @ 1955: uvm_test_top.env.scb [DATA_MATCH] Read addr=0x000000000000000e size=0: data=0x00000000 OK
UVM_INFO ./vip/common/ahb_scoreboard.sv(72) @ 2045: uvm_test_top.env.scb [DATA_MATCH] Read addr=0x00000000000000f9 size=0: data=0x00000000 OK
UVM_INFO ./vip/common/ahb_scoreboard.sv(72) @ 2055: uvm_test_top.env.scb [DATA_MATCH] Read addr=0x00000000000000f3 size=0: data=0x00000065 OK
UVM_INFO ./vip/common/ahb_scoreboard.sv(72) @ 2065: uvm_test_top.env.scb [DATA_MATCH] Read addr=0x0000000000000030 size=0: data=0x00000041 OK
UVM_INFO ./vip/common/ahb_scoreboard.sv(72) @ 2245: uvm_test_top.env.scb [DATA_MATCH] Read addr=0x00000000000000cd size=0: data=0x00000000 OK
UVM_INFO ./vip/common/ahb_scoreboard.sv(72) @ 2255: uvm_test_top.env.scb [DATA_MATCH] Read addr=0x00000000000000ce size=0: data=0x00000000 OK
UVM_INFO ./vip/common/ahb_scoreboard.sv(72) @ 2265: uvm_test_top.env.scb [DATA_MATCH] Read addr=0x00000000000000cf size=0: data=0x00000000 OK
UVM_INFO ./vip/common/ahb_scoreboard.sv(72) @ 2275: uvm_test_top.env.scb [DATA_MATCH] Read addr=0x00000000000000d0 size=0: data=0x00000000 OK
UVM_INFO ./vip/common/ahb_scoreboard.sv(72) @ 2285: uvm_test_top.env.scb [DATA_MATCH] Read addr=0x00000000000000d1 size=0: data=0x00000000 OK
UVM_INFO ./vip/common/ahb_scoreboard.sv(72) @ 2295: uvm_test_top.env.scb [DATA_MATCH] Read addr=0x00000000000000d2 size=0: data=0x00000000 OK
UVM_INFO ./vip/common/ahb_scoreboard.sv(72) @ 2305: uvm_test_top.env.scb [DATA_MATCH] Read addr=0x00000000000000d3 size=0: data=0x00000000 OK
UVM_INFO ./vip/common/ahb_scoreboard.sv(72) @ 2315: uvm_test_top.env.scb [DATA_MATCH] Read addr=0x00000000000000d4 size=0: data=0x00000000 OK
UVM_INFO ./vip/common/ahb_scoreboard.sv(72) @ 2325: uvm_test_top.env.scb [DATA_MATCH] Read addr=0x00000000000000d5 size=0: data=0x00000000 OK
UVM_INFO ./vip/common/ahb_scoreboard.sv(72) @ 2335: uvm_test_top.env.scb [DATA_MATCH] Read addr=0x00000000000000d6 size=0: data=0x00000000 OK
UVM_INFO ./vip/common/ahb_scoreboard.sv(72) @ 2345: uvm_test_top.env.scb [DATA_MATCH] Read addr=0x00000000000000d7 size=0: data=0x00000000 OK
UVM_INFO ./vip/common/ahb_scoreboard.sv(72) @ 2355: uvm_test_top.env.scb [DATA_MATCH] Read addr=0x00000000000000bc size=2: data=0xe08cf717 OK
UVM_INFO ./vip/common/ahb_scoreboard.sv(72) @ 2365: uvm_test_top.env.scb [DATA_MATCH] Read addr=0x00000000000000c0 size=2: data=0xe08cf717 OK
UVM_INFO ./vip/common/ahb_scoreboard.sv(72) @ 2375: uvm_test_top.env.scb [DATA_MATCH] Read addr=0x00000000000000c4 size=2: data=0x5868f717 OK
UVM_INFO ./vip/common/ahb_scoreboard.sv(72) @ 2385: uvm_test_top.env.scb [DATA_MATCH] Read addr=0x00000000000000c8 size=2: data=0x5868d706 OK
UVM_INFO ./vip/common/ahb_scoreboard.sv(72) @ 2395: uvm_test_top.env.scb [DATA_MATCH] Read addr=0x00000000000000cc size=2: data=0x00000000 OK
UVM_INFO ./vip/common/ahb_scoreboard.sv(72) @ 2515: uvm_test_top.env.scb [DATA_MATCH] Read addr=0x000000000000001c size=2: data=0x00003ac6 OK
UVM_INFO ./vip/common/ahb_scoreboard.sv(72) @ 2525: uvm_test_top.env.scb [DATA_MATCH] Read addr=0x000000000000005e size=1: data=0x00000000 OK
UVM_INFO ./vip/common/ahb_scoreboard.sv(72) @ 2615: uvm_test_top.env.scb [DATA_MATCH] Read addr=0x000000000000002f size=0: data=0x00000085 OK
UVM_INFO ./vip/common/ahb_scoreboard.sv(72) @ 2625: uvm_test_top.env.scb [DATA_MATCH] Read addr=0x0000000000000030 size=0: data=0x00000041 OK
UVM_INFO ./vip/common/ahb_scoreboard.sv(72) @ 2635: uvm_test_top.env.scb [DATA_MATCH] Read addr=0x0000000000000031 size=0: data=0x00000031 OK
UVM_INFO ./vip/common/ahb_scoreboard.sv(72) @ 2645: uvm_test_top.env.scb [DATA_MATCH] Read addr=0x0000000000000032 size=0: data=0x0000003b OK
UVM_INFO ./vip/common/ahb_scoreboard.sv(72) @ 2655: uvm_test_top.env.scb [DATA_MATCH] Read addr=0x0000000000000033 size=0: data=0x00000085 OK
UVM_INFO ./vip/common/ahb_scoreboard.sv(72) @ 2665: uvm_test_top.env.scb [DATA_MATCH] Read addr=0x0000000000000034 size=0: data=0x00000041 OK
UVM_INFO ./vip/common/ahb_scoreboard.sv(72) @ 2675: uvm_test_top.env.scb [DATA_MATCH] Read addr=0x0000000000000035 size=0: data=0x00000031 OK
UVM_INFO ./vip/common/ahb_scoreboard.sv(72) @ 2685: uvm_test_top.env.scb [DATA_MATCH] Read addr=0x0000000000000036 size=0: data=0x00000048 OK
UVM_INFO ./vip/common/ahb_scoreboard.sv(72) @ 2695: uvm_test_top.env.scb [DATA_MATCH] Read addr=0x0000000000000037 size=0: data=0x000000da OK
UVM_INFO ./vip/common/ahb_scoreboard.sv(72) @ 2705: uvm_test_top.env.scb [DATA_MATCH] Read addr=0x0000000000000038 size=0: data=0x0000005b OK
UVM_INFO ./vip/common/ahb_scoreboard.sv(72) @ 2715: uvm_test_top.env.scb [DATA_MATCH] Read addr=0x0000000000000039 size=0: data=0x0000006c OK
UVM_INFO ./vip/common/ahb_scoreboard.sv(72) @ 2725: uvm_test_top.env.scb [DATA_MATCH] Read addr=0x000000000000003a size=0: data=0x00000095 OK
UVM_INFO ./vip/common/ahb_scoreboard.sv(72) @ 2735: uvm_test_top.env.scb [DATA_MATCH] Read addr=0x000000000000003b size=0: data=0x000000d7 OK
UVM_INFO ./vip/common/ahb_scoreboard.sv(72) @ 2745: uvm_test_top.env.scb [DATA_MATCH] Read addr=0x0000000000000090 size=1: data=0x00009cae OK
UVM_INFO ./vip/common/ahb_scoreboard.sv(72) @ 2785: uvm_test_top.env.scb [DATA_MATCH] Read addr=0x00000000000000ee size=0: data=0x000000ee OK
UVM_INFO ./vip/common/ahb_scoreboard.sv(72) @ 2795: uvm_test_top.env.scb [DATA_MATCH] Read addr=0x00000000000000ef size=0: data=0x00000065 OK
UVM_INFO ./vip/common/ahb_scoreboard.sv(72) @ 2805: uvm_test_top.env.scb [DATA_MATCH] Read addr=0x00000000000000f0 size=0: data=0x0000005c OK
UVM_INFO ./vip/common/ahb_scoreboard.sv(72) @ 2815: uvm_test_top.env.scb [DATA_MATCH] Read addr=0x00000000000000f1 size=0: data=0x0000008a OK
UVM_INFO ./vip/common/ahb_scoreboard.sv(72) @ 2825: uvm_test_top.env.scb [DATA_MATCH] Read addr=0x00000000000000f2 size=0: data=0x000000ee OK
UVM_INFO ./vip/common/ahb_scoreboard.sv(72) @ 2835: uvm_test_top.env.scb [DATA_MATCH] Read addr=0x00000000000000f3 size=0: data=0x00000065 OK
UVM_INFO ./vip/common/ahb_scoreboard.sv(72) @ 2845: uvm_test_top.env.scb [DATA_MATCH] Read addr=0x00000000000000f4 size=0: data=0x0000005c OK
UVM_INFO ./vip/common/ahb_scoreboard.sv(72) @ 2855: uvm_test_top.env.scb [DATA_MATCH] Read addr=0x00000000000000f5 size=0: data=0x0000008a OK
UVM_INFO ./vip/common/ahb_scoreboard.sv(72) @ 2865: uvm_test_top.env.scb [DATA_MATCH] Read addr=0x00000000000000f6 size=0: data=0x000000ee OK
UVM_INFO ./vip/common/ahb_scoreboard.sv(72) @ 2875: uvm_test_top.env.scb [DATA_MATCH] Read addr=0x00000000000000f7 size=0: data=0x00000065 OK
UVM_INFO ./vip/common/ahb_scoreboard.sv(72) @ 2885: uvm_test_top.env.scb [DATA_MATCH] Read addr=0x00000000000000f8 size=0: data=0x000000ac OK
UVM_INFO ./vip/common/ahb_scoreboard.sv(72) @ 2895: uvm_test_top.env.scb [DATA_MATCH] Read addr=0x0000000000000098 size=0: data=0x000000ae OK
UVM_INFO ./vip/common/ahb_scoreboard.sv(72) @ 2905: uvm_test_top.env.scb [DATA_MATCH] Read addr=0x00000000000000d6 size=1: data=0x00000000 OK
UVM_INFO ./vip/common/ahb_scoreboard.sv(72) @ 2915: uvm_test_top.env.scb [DATA_MATCH] Read addr=0x00000000000000d8 size=1: data=0x0000e831 OK
UVM_INFO ./vip/common/ahb_scoreboard.sv(72) @ 2925: uvm_test_top.env.scb [DATA_MATCH] Read addr=0x00000000000000da size=1: data=0x0000e643 OK
UVM_INFO ./vip/common/ahb_scoreboard.sv(72) @ 2935: uvm_test_top.env.scb [DATA_MATCH] Read addr=0x00000000000000dc size=1: data=0x0000e831 OK
UVM_INFO ./vip/common/ahb_scoreboard.sv(72) @ 2945: uvm_test_top.env.scb [DATA_MATCH] Read addr=0x00000000000000de size=1: data=0x0000e643 OK
UVM_INFO ./vip/common/ahb_scoreboard.sv(72) @ 2955: uvm_test_top.env.scb [DATA_MATCH] Read addr=0x00000000000000e0 size=1: data=0x0000e831 OK
UVM_INFO ./vip/common/ahb_scoreboard.sv(72) @ 2965: uvm_test_top.env.scb [DATA_MATCH] Read addr=0x00000000000000e2 size=1: data=0x0000e643 OK
UVM_INFO ./vip/common/ahb_scoreboard.sv(72) @ 2975: uvm_test_top.env.scb [DATA_MATCH] Read addr=0x00000000000000e4 size=1: data=0x00000000 OK
UVM_INFO ./vip/common/ahb_scoreboard.sv(72) @ 2985: uvm_test_top.env.scb [DATA_MATCH] Read addr=0x00000000000000e8 size=2: data=0x65ee8a5c OK
UVM_INFO ./vip/common/ahb_scoreboard.sv(72) @ 3005: uvm_test_top.env.scb [DATA_MATCH] Read addr=0x00000000000000b8 size=2: data=0xe08cf717 OK
UVM_INFO ./vip/common/ahb_scoreboard.sv(72) @ 3015: uvm_test_top.env.scb [DATA_MATCH] Read addr=0x00000000000000bc size=2: data=0xe08cf717 OK
UVM_INFO ./vip/common/ahb_scoreboard.sv(72) @ 3025: uvm_test_top.env.scb [DATA_MATCH] Read addr=0x00000000000000c0 size=2: data=0xe08cf717 OK
UVM_INFO ./vip/common/ahb_scoreboard.sv(72) @ 3035: uvm_test_top.env.scb [DATA_MATCH] Read addr=0x00000000000000c4 size=2: data=0x5868f717 OK
UVM_INFO ./vip/common/ahb_scoreboard.sv(72) @ 3045: uvm_test_top.env.scb [DATA_MATCH] Read addr=0x00000000000000c8 size=2: data=0x5868d706 OK
UVM_INFO ./vip/common/ahb_scoreboard.sv(72) @ 3055: uvm_test_top.env.scb [DATA_MATCH] Read addr=0x00000000000000cc size=2: data=0xe91eaeb8 OK
UVM_INFO ./vip/common/ahb_scoreboard.sv(72) @ 3065: uvm_test_top.env.scb [DATA_MATCH] Read addr=0x0000000000000084 size=2: data=0xcdcdacc3 OK
UVM_INFO ./vip/common/ahb_scoreboard.sv(72) @ 3075: uvm_test_top.env.scb [DATA_MATCH] Read addr=0x0000000000000088 size=2: data=0xcdcdacc3 OK
UVM_INFO ./vip/common/ahb_scoreboard.sv(72) @ 3085: uvm_test_top.env.scb [DATA_MATCH] Read addr=0x000000000000008c size=2: data=0x8e3f0000 OK
UVM_INFO ./vip/common/ahb_scoreboard.sv(72) @ 3095: uvm_test_top.env.scb [DATA_MATCH] Read addr=0x0000000000000090 size=2: data=0x8e3f9cae OK
UVM_INFO ./vip/common/ahb_scoreboard.sv(72) @ 3105: uvm_test_top.env.scb [DATA_MATCH] Read addr=0x0000000000000094 size=2: data=0x8e3f9cae OK
UVM_INFO ./vip/common/ahb_scoreboard.sv(72) @ 3115: uvm_test_top.env.scb [DATA_MATCH] Read addr=0x0000000000000098 size=2: data=0x8e3f9cae OK
UVM_INFO ./vip/common/ahb_scoreboard.sv(72) @ 3125: uvm_test_top.env.scb [DATA_MATCH] Read addr=0x000000000000009c size=2: data=0x8e3f9cae OK
UVM_INFO ./vip/common/ahb_scoreboard.sv(72) @ 3135: uvm_test_top.env.scb [DATA_MATCH] Read addr=0x00000000000000a0 size=2: data=0x8e3f9cae OK
UVM_INFO ./vip/common/ahb_scoreboard.sv(72) @ 3145: uvm_test_top.env.scb [DATA_MATCH] Read addr=0x00000000000000a4 size=2: data=0xe75eaa70 OK
UVM_INFO ./vip/common/ahb_scoreboard.sv(72) @ 3155: uvm_test_top.env.scb [DATA_MATCH] Read addr=0x00000000000000a8 size=2: data=0xe08c86d4 OK
UVM_INFO ./vip/common/ahb_scoreboard.sv(72) @ 3165: uvm_test_top.env.scb [DATA_MATCH] Read addr=0x00000000000000ac size=2: data=0xe08cf717 OK
UVM_INFO ./vip/common/ahb_scoreboard.sv(72) @ 3175: uvm_test_top.env.scb [DATA_MATCH] Read addr=0x00000000000000b0 size=2: data=0xe08cf717 OK
UVM_INFO ./vip/common/ahb_scoreboard.sv(72) @ 3185: uvm_test_top.env.scb [DATA_MATCH] Read addr=0x00000000000000ac size=1: data=0x0000f717 OK
UVM_INFO ./vip/common/ahb_scoreboard.sv(72) @ 3195: uvm_test_top.env.scb [DATA_MATCH] Read addr=0x00000000000000ae size=1: data=0x0000e08c OK
UVM_INFO ./vip/common/ahb_scoreboard.sv(72) @ 3205: uvm_test_top.env.scb [DATA_MATCH] Read addr=0x00000000000000b0 size=1: data=0x0000f717 OK
UVM_INFO ./vip/common/ahb_scoreboard.sv(72) @ 3215: uvm_test_top.env.scb [DATA_MATCH] Read addr=0x00000000000000b2 size=1: data=0x0000e08c OK
UVM_INFO ./vip/common/ahb_scoreboard.sv(72) @ 3225: uvm_test_top.env.scb [DATA_MATCH] Read addr=0x00000000000000b4 size=1: data=0x0000f717 OK
UVM_INFO ./vip/common/ahb_scoreboard.sv(72) @ 3235: uvm_test_top.env.scb [DATA_MATCH] Read addr=0x00000000000000b6 size=1: data=0x0000e08c OK
UVM_INFO ./vip/common/ahb_scoreboard.sv(72) @ 3245: uvm_test_top.env.scb [DATA_MATCH] Read addr=0x00000000000000b8 size=1: data=0x0000f717 OK
UVM_INFO ./vip/common/ahb_scoreboard.sv(72) @ 3255: uvm_test_top.env.scb [DATA_MATCH] Read addr=0x00000000000000ba size=1: data=0x0000e08c OK
UVM_INFO ./vip/common/ahb_scoreboard.sv(72) @ 3265: uvm_test_top.env.scb [DATA_MATCH] Read addr=0x00000000000000bc size=1: data=0x0000f717 OK
UVM_INFO ./vip/common/ahb_scoreboard.sv(72) @ 3275: uvm_test_top.env.scb [DATA_MATCH] Read addr=0x00000000000000be size=1: data=0x0000e08c OK
UVM_INFO ./vip/common/ahb_scoreboard.sv(72) @ 3285: uvm_test_top.env.scb [DATA_MATCH] Read addr=0x00000000000000c0 size=1: data=0x0000f717 OK
UVM_INFO ./vip/common/ahb_scoreboard.sv(72) @ 3295: uvm_test_top.env.scb [DATA_MATCH] Read addr=0x00000000000000c2 size=1: data=0x0000e08c OK
UVM_INFO ./vip/common/ahb_scoreboard.sv(72) @ 3305: uvm_test_top.env.scb [DATA_MATCH] Read addr=0x00000000000000c4 size=1: data=0x0000f717 OK
UVM_INFO ./vip/common/ahb_scoreboard.sv(72) @ 3335: uvm_test_top.env.scb [DATA_MATCH] Read addr=0x0000000000000046 size=0: data=0x00000095 OK
UVM_INFO ./vip/common/ahb_scoreboard.sv(72) @ 3345: uvm_test_top.env.scb [DATA_MATCH] Read addr=0x00000000000000da size=0: data=0x00000043 OK
UVM_INFO ./vip/common/ahb_scoreboard.sv(72) @ 3415: uvm_test_top.env.scb [DATA_MATCH] Read addr=0x0000000000000028 size=2: data=0x6032462c OK
UVM_INFO ./vip/common/ahb_scoreboard.sv(72) @ 3425: uvm_test_top.env.scb [DATA_MATCH] Read addr=0x000000000000002c size=2: data=0x11c34e17 OK
UVM_INFO ./vip/common/ahb_scoreboard.sv(72) @ 3435: uvm_test_top.env.scb [DATA_MATCH] Read addr=0x0000000000000030 size=2: data=0x853b3141 OK
UVM_INFO ./vip/common/ahb_scoreboard.sv(72) @ 3465: uvm_test_top.env.scb [DATA_MATCH] Read addr=0x0000000000000030 size=1: data=0x00003141 OK
UVM_INFO ./vip/common/ahb_scoreboard.sv(72) @ 3475: uvm_test_top.env.scb [DATA_MATCH] Read addr=0x0000000000000032 size=1: data=0x0000853b OK
UVM_INFO ./vip/common/ahb_scoreboard.sv(72) @ 3485: uvm_test_top.env.scb [DATA_MATCH] Read addr=0x0000000000000034 size=1: data=0x00003141 OK
UVM_INFO ./vip/common/ahb_scoreboard.sv(72) @ 3495: uvm_test_top.env.scb [DATA_MATCH] Read addr=0x0000000000000036 size=1: data=0x0000da48 OK
UVM_INFO ./vip/common/ahb_scoreboard.sv(72) @ 3505: uvm_test_top.env.scb [DATA_MATCH] Read addr=0x0000000000000038 size=1: data=0x00006c5b OK
UVM_INFO ./vip/common/ahb_scoreboard.sv(72) @ 3515: uvm_test_top.env.scb [DATA_MATCH] Read addr=0x000000000000003a size=1: data=0x0000d795 OK
UVM_INFO ./vip/common/ahb_scoreboard.sv(72) @ 3525: uvm_test_top.env.scb [DATA_MATCH] Read addr=0x000000000000003c size=1: data=0x00006c5b OK
UVM_INFO ./vip/common/ahb_scoreboard.sv(72) @ 3535: uvm_test_top.env.scb [DATA_MATCH] Read addr=0x000000000000003e size=1: data=0x0000d795 OK
UVM_INFO ./vip/common/ahb_scoreboard.sv(72) @ 3545: uvm_test_top.env.scb [DATA_MATCH] Read addr=0x0000000000000040 size=1: data=0x00006c5b OK
UVM_INFO ./vip/common/ahb_scoreboard.sv(72) @ 3555: uvm_test_top.env.scb [DATA_MATCH] Read addr=0x0000000000000042 size=1: data=0x0000d795 OK
UVM_INFO ./vip/common/ahb_scoreboard.sv(72) @ 3565: uvm_test_top.env.scb [DATA_MATCH] Read addr=0x0000000000000044 size=1: data=0x00006c5b OK
UVM_INFO ./vip/common/ahb_scoreboard.sv(72) @ 3575: uvm_test_top.env.scb [DATA_MATCH] Read addr=0x0000000000000046 size=1: data=0x0000d795 OK
UVM_INFO ./vip/common/ahb_scoreboard.sv(72) @ 3585: uvm_test_top.env.scb [DATA_MATCH] Read addr=0x0000000000000048 size=1: data=0x00006c5b OK
UVM_INFO ./vip/common/ahb_scoreboard.sv(72) @ 3595: uvm_test_top.env.scb [DATA_MATCH] Read addr=0x00000000000000b3 size=0: data=0x000000e0 OK
UVM_INFO ./vip/common/ahb_scoreboard.sv(72) @ 3605: uvm_test_top.env.scb [DATA_MATCH] Read addr=0x00000000000000b4 size=0: data=0x00000017 OK
UVM_INFO ./vip/common/ahb_scoreboard.sv(72) @ 3615: uvm_test_top.env.scb [DATA_MATCH] Read addr=0x00000000000000b5 size=0: data=0x000000f7 OK
UVM_INFO ./vip/common/ahb_scoreboard.sv(72) @ 3625: uvm_test_top.env.scb [DATA_MATCH] Read addr=0x00000000000000b6 size=0: data=0x0000008c OK
UVM_INFO ./vip/common/ahb_scoreboard.sv(72) @ 3635: uvm_test_top.env.scb [DATA_MATCH] Read addr=0x00000000000000b7 size=0: data=0x000000e0 OK
UVM_INFO ./vip/common/ahb_scoreboard.sv(72) @ 3645: uvm_test_top.env.scb [DATA_MATCH] Read addr=0x00000000000000b8 size=0: data=0x00000017 OK
UVM_INFO ./vip/common/ahb_scoreboard.sv(72) @ 3815: uvm_test_top.env.scb [DATA_MATCH] Read addr=0x0000000000000008 size=1: data=0x00000000 OK
UVM_INFO ./vip/common/ahb_scoreboard.sv(72) @ 3825: uvm_test_top.env.scb [DATA_MATCH] Read addr=0x00000000000000f0 size=0: data=0x0000005c OK
UVM_INFO ./vip/common/ahb_scoreboard.sv(72) @ 3835: uvm_test_top.env.scb [DATA_MATCH] Read addr=0x00000000000000f1 size=0: data=0x0000008a OK
UVM_INFO ./vip/common/ahb_scoreboard.sv(72) @ 3845: uvm_test_top.env.scb [DATA_MATCH] Read addr=0x00000000000000f2 size=0: data=0x000000ee OK
UVM_INFO ./vip/common/ahb_scoreboard.sv(72) @ 3855: uvm_test_top.env.scb [DATA_MATCH] Read addr=0x00000000000000f3 size=0: data=0x00000065 OK
UVM_INFO ./vip/common/ahb_scoreboard.sv(72) @ 3865: uvm_test_top.env.scb [DATA_MATCH] Read addr=0x00000000000000f4 size=0: data=0x000000bf OK
UVM_INFO ./vip/common/ahb_scoreboard.sv(72) @ 3875: uvm_test_top.env.scb [DATA_MATCH] Read addr=0x00000000000000f5 size=0: data=0x0000002c OK
UVM_INFO ./vip/common/ahb_scoreboard.sv(72) @ 3885: uvm_test_top.env.scb [DATA_MATCH] Read addr=0x00000000000000f6 size=0: data=0x000000ee OK
UVM_INFO ./vip/common/ahb_scoreboard.sv(72) @ 3895: uvm_test_top.env.scb [DATA_MATCH] Read addr=0x00000000000000f7 size=0: data=0x00000065 OK
UVM_INFO ./vip/common/ahb_scoreboard.sv(72) @ 3905: uvm_test_top.env.scb [DATA_MATCH] Read addr=0x00000000000000f8 size=0: data=0x000000ac OK
UVM_INFO ./vip/common/ahb_scoreboard.sv(72) @ 3915: uvm_test_top.env.scb [DATA_MATCH] Read addr=0x00000000000000f9 size=0: data=0x00000000 OK
UVM_INFO ./vip/common/ahb_scoreboard.sv(72) @ 3925: uvm_test_top.env.scb [DATA_MATCH] Read addr=0x00000000000000fa size=0: data=0x00000041 OK
UVM_INFO ./vip/common/ahb_scoreboard.sv(72) @ 3935: uvm_test_top.env.scb [DATA_MATCH] Read addr=0x00000000000000fb size=0: data=0x00000000 OK
UVM_INFO ./vip/common/ahb_scoreboard.sv(72) @ 3945: uvm_test_top.env.scb [DATA_MATCH] Read addr=0x00000000000000fc size=0: data=0x00000000 OK
UVM_INFO ./vip/common/ahb_scoreboard.sv(72) @ 3955: uvm_test_top.env.scb [DATA_MATCH] Read addr=0x00000000000000fd size=0: data=0x00000000 OK
UVM_INFO ./vip/common/ahb_scoreboard.sv(72) @ 3965: uvm_test_top.env.scb [DATA_MATCH] Read addr=0x00000000000000fe size=0: data=0x00000000 OK
UVM_INFO ./vip/common/ahb_scoreboard.sv(72) @ 4095: uvm_test_top.env.scb [DATA_MATCH] Read addr=0x00000000000000de size=1: data=0x00005041 OK
UVM_INFO ./vip/common/ahb_scoreboard.sv(72) @ 4105: uvm_test_top.env.scb [DATA_MATCH] Read addr=0x000000000000001b size=0: data=0x00000018 OK
UVM_INFO ./vip/common/ahb_scoreboard.sv(72) @ 4125: uvm_test_top.env.scb [DATA_MATCH] Read addr=0xfffffffffffffffe size=1: data=0x00000000 OK
UVM_INFO ./vip/common/ahb_scoreboard.sv(72) @ 4135: uvm_test_top.env.scb [DATA_MATCH] Read addr=0x0000000000000000 size=1: data=0x0000366b OK
UVM_INFO ./vip/common/ahb_scoreboard.sv(72) @ 4145: uvm_test_top.env.scb [DATA_MATCH] Read addr=0x0000000000000002 size=1: data=0x0000435a OK
UVM_INFO ./vip/common/ahb_scoreboard.sv(72) @ 4155: uvm_test_top.env.scb [DATA_MATCH] Read addr=0x0000000000000004 size=1: data=0x0000366b OK
UVM_INFO ./vip/common/ahb_scoreboard.sv(72) @ 4165: uvm_test_top.env.scb [DATA_MATCH] Read addr=0x0000000000000006 size=1: data=0x0000435a OK
UVM_INFO ./vip/common/ahb_scoreboard.sv(72) @ 4175: uvm_test_top.env.scb [DATA_MATCH] Read addr=0x0000000000000008 size=1: data=0x00000000 OK
UVM_INFO ./vip/common/ahb_scoreboard.sv(72) @ 4185: uvm_test_top.env.scb [DATA_MATCH] Read addr=0x000000000000000a size=1: data=0x00000000 OK
UVM_INFO ./vip/common/ahb_scoreboard.sv(72) @ 4195: uvm_test_top.env.scb [DATA_MATCH] Read addr=0x000000000000000c size=1: data=0x00000000 OK
UVM_INFO ./vip/common/ahb_scoreboard.sv(72) @ 4205: uvm_test_top.env.scb [DATA_MATCH] Read addr=0x000000000000000e size=1: data=0x00000000 OK
UVM_INFO ./vip/common/ahb_scoreboard.sv(72) @ 4215: uvm_test_top.env.scb [DATA_MATCH] Read addr=0x0000000000000010 size=1: data=0x00007fe0 OK
UVM_INFO ./vip/common/ahb_scoreboard.sv(72) @ 4225: uvm_test_top.env.scb [DATA_MATCH] Read addr=0x0000000000000012 size=1: data=0x0000182c OK
UVM_INFO ./vip/common/ahb_scoreboard.sv(72) @ 4235: uvm_test_top.env.scb [DATA_MATCH] Read addr=0x0000000000000014 size=1: data=0x00007fe0 OK
UVM_INFO ./vip/common/ahb_scoreboard.sv(72) @ 4245: uvm_test_top.env.scb [DATA_MATCH] Read addr=0x0000000000000016 size=1: data=0x0000182c OK
UVM_INFO ./vip/common/ahb_scoreboard.sv(72) @ 4255: uvm_test_top.env.scb [DATA_MATCH] Read addr=0x0000000000000082 size=0: data=0x000000cd OK
UVM_INFO ./vip/common/ahb_scoreboard.sv(72) @ 4265: uvm_test_top.env.scb [DATA_MATCH] Read addr=0x0000000000000083 size=0: data=0x000000cd OK
UVM_INFO ./vip/common/ahb_scoreboard.sv(72) @ 4275: uvm_test_top.env.scb [DATA_MATCH] Read addr=0x0000000000000030 size=0: data=0x00000041 OK
UVM_INFO ./vip/common/ahb_scoreboard.sv(72) @ 4285: uvm_test_top.env.scb [DATA_MATCH] Read addr=0x000000000000006d size=0: data=0x000000c9 OK
UVM_INFO ./vip/common/ahb_scoreboard.sv(72) @ 4295: uvm_test_top.env.scb [DATA_MATCH] Read addr=0x000000000000006e size=0: data=0x000000cd OK
UVM_INFO ./vip/common/ahb_scoreboard.sv(72) @ 4305: uvm_test_top.env.scb [DATA_MATCH] Read addr=0x000000000000006f size=0: data=0x000000cd OK
UVM_INFO ./vip/common/ahb_scoreboard.sv(72) @ 4315: uvm_test_top.env.scb [DATA_MATCH] Read addr=0x0000000000000070 size=0: data=0x000000c3 OK
UVM_INFO ./vip/common/ahb_scoreboard.sv(72) @ 4325: uvm_test_top.env.scb [DATA_MATCH] Read addr=0x0000000000000068 size=2: data=0x0000005e OK
UVM_INFO ./vip/common/ahb_scoreboard.sv(72) @ 4335: uvm_test_top.env.scb [DATA_MATCH] Read addr=0x000000000000006c size=2: data=0xcdcdc992 OK
UVM_INFO ./vip/common/ahb_scoreboard.sv(72) @ 4355: uvm_test_top.env.scb [DATA_MATCH] Read addr=0x0000000000000018 size=2: data=0x182c7fe0 OK
UVM_INFO ./vip/common/ahb_scoreboard.sv(72) @ 4365: uvm_test_top.env.scb [DATA_MATCH] Read addr=0x000000000000001c size=2: data=0x182c7fe0 OK
UVM_INFO ./vip/common/ahb_scoreboard.sv(72) @ 4375: uvm_test_top.env.scb [DATA_MATCH] Read addr=0x0000000000000020 size=2: data=0x182c7fe0 OK
UVM_INFO ./vip/common/ahb_scoreboard.sv(72) @ 4505: uvm_test_top.env.scb [DATA_MATCH] Read addr=0x00000000000000d0 size=2: data=0xe91eaeb8 OK
UVM_INFO ./vip/common/ahb_scoreboard.sv(72) @ 4525: uvm_test_top.env.scb [DATA_MATCH] Read addr=0x0000000000000044 size=2: data=0xd7956c5b OK
UVM_INFO ./vip/common/ahb_scoreboard.sv(72) @ 4535: uvm_test_top.env.scb [DATA_MATCH] Read addr=0x0000000000000048 size=2: data=0xd7956c5b OK
UVM_INFO ./vip/common/ahb_scoreboard.sv(72) @ 4545: uvm_test_top.env.scb [DATA_MATCH] Read addr=0x000000000000004c size=2: data=0xd5e48910 OK
UVM_INFO ./vip/common/ahb_scoreboard.sv(72) @ 4555: uvm_test_top.env.scb [DATA_MATCH] Read addr=0x0000000000000050 size=2: data=0xefe48910 OK
UVM_INFO ./vip/common/ahb_scoreboard.sv(72) @ 4565: uvm_test_top.env.scb [DATA_MATCH] Read addr=0x0000000000000054 size=2: data=0xefe48910 OK
UVM_INFO ./vip/common/ahb_scoreboard.sv(72) @ 4575: uvm_test_top.env.scb [DATA_MATCH] Read addr=0x0000000000000058 size=2: data=0xefe48910 OK
UVM_INFO ./vip/common/ahb_scoreboard.sv(72) @ 4585: uvm_test_top.env.scb [DATA_MATCH] Read addr=0x0000000000000058 size=0: data=0x00000010 OK
UVM_INFO ./vip/common/ahb_scoreboard.sv(72) @ 4595: uvm_test_top.env.scb [DATA_MATCH] Read addr=0x00000000000000ec size=1: data=0x0000f9c5 OK
UVM_INFO ./vip/common/ahb_scoreboard.sv(72) @ 4625: uvm_test_top.env.scb [DATA_MATCH] Read addr=0x00000000000000c0 size=2: data=0xe08cf717 OK
UVM_INFO ./vip/common/ahb_scoreboard.sv(72) @ 4725: uvm_test_top.env.scb [DATA_MATCH] Read addr=0x000000000000004c size=0: data=0x00000010 OK
UVM_INFO ./vip/common/ahb_scoreboard.sv(72) @ 4735: uvm_test_top.env.scb [DATA_MATCH] Read addr=0x000000000000007c size=0: data=0x000000c3 OK
UVM_INFO ./vip/common/ahb_scoreboard.sv(72) @ 4745: uvm_test_top.env.scb [DATA_MATCH] Read addr=0x000000000000007d size=0: data=0x000000ac OK
UVM_INFO ./vip/common/ahb_scoreboard.sv(72) @ 4755: uvm_test_top.env.scb [DATA_MATCH] Read addr=0x000000000000007e size=0: data=0x000000cd OK
UVM_INFO ./vip/common/ahb_scoreboard.sv(72) @ 4765: uvm_test_top.env.scb [DATA_MATCH] Read addr=0x000000000000007f size=0: data=0x0000000e OK
UVM_INFO ./vip/common/ahb_scoreboard.sv(72) @ 4775: uvm_test_top.env.scb [DATA_MATCH] Read addr=0x0000000000000080 size=0: data=0x000000c3 OK
UVM_INFO ./vip/common/ahb_scoreboard.sv(72) @ 4785: uvm_test_top.env.scb [DATA_MATCH] Read addr=0x0000000000000081 size=0: data=0x000000ac OK
UVM_INFO ./vip/common/ahb_scoreboard.sv(72) @ 4795: uvm_test_top.env.scb [DATA_MATCH] Read addr=0x0000000000000082 size=0: data=0x000000cd OK
UVM_INFO ./vip/common/ahb_scoreboard.sv(72) @ 4805: uvm_test_top.env.scb [DATA_MATCH] Read addr=0x0000000000000083 size=0: data=0x000000cd OK
UVM_INFO ./vip/common/ahb_scoreboard.sv(72) @ 4815: uvm_test_top.env.scb [DATA_MATCH] Read addr=0x0000000000000084 size=0: data=0x00000059 OK
UVM_INFO ./vip/common/ahb_scoreboard.sv(72) @ 4825: uvm_test_top.env.scb [DATA_MATCH] Read addr=0x0000000000000085 size=0: data=0x0000005b OK
UVM_INFO ./vip/common/ahb_scoreboard.sv(72) @ 4995: uvm_test_top.env.scb [DATA_MATCH] Read addr=0x000000000000005c size=2: data=0x0000006b OK
UVM_INFO ./vip/common/ahb_scoreboard.sv(72) @ 5145: uvm_test_top.env.scb [DATA_MATCH] Read addr=0x0000000000000034 size=1: data=0x00003141 OK
UVM_INFO ./vip/common/ahb_scoreboard.sv(72) @ 5155: uvm_test_top.env.scb [DATA_MATCH] Read addr=0x0000000000000036 size=1: data=0x0000da48 OK
UVM_INFO ./vip/common/ahb_scoreboard.sv(72) @ 5165: uvm_test_top.env.scb [DATA_MATCH] Read addr=0x0000000000000038 size=1: data=0x00006c5b OK
UVM_INFO ./vip/common/ahb_scoreboard.sv(72) @ 5175: uvm_test_top.env.scb [DATA_MATCH] Read addr=0x000000000000003a size=1: data=0x0000d795 OK
UVM_INFO ./vip/common/ahb_scoreboard.sv(72) @ 5185: uvm_test_top.env.scb [DATA_MATCH] Read addr=0x000000000000003c size=1: data=0x00006c5b OK
UVM_INFO ./vip/common/ahb_scoreboard.sv(72) @ 5195: uvm_test_top.env.scb [DATA_MATCH] Read addr=0x000000000000003e size=1: data=0x0000d795 OK
UVM_INFO ./vip/common/ahb_scoreboard.sv(72) @ 5205: uvm_test_top.env.scb [DATA_MATCH] Read addr=0x0000000000000040 size=1: data=0x0000531b OK
UVM_INFO ./vip/common/ahb_scoreboard.sv(72) @ 5215: uvm_test_top.env.scb [DATA_MATCH] Read addr=0x0000000000000042 size=1: data=0x0000163a OK
UVM_INFO ./vip/common/ahb_scoreboard.sv(72) @ 5225: uvm_test_top.env.scb [DATA_MATCH] Read addr=0x0000000000000044 size=1: data=0x00006c5b OK
UVM_INFO ./vip/common/ahb_scoreboard.sv(72) @ 5235: uvm_test_top.env.scb [DATA_MATCH] Read addr=0x0000000000000046 size=1: data=0x0000d795 OK
UVM_INFO ./vip/common/ahb_scoreboard.sv(72) @ 5245: uvm_test_top.env.scb [DATA_MATCH] Read addr=0x0000000000000048 size=1: data=0x00006c5b OK
UVM_INFO ./vip/common/ahb_scoreboard.sv(72) @ 5255: uvm_test_top.env.scb [DATA_MATCH] Read addr=0x000000000000004a size=1: data=0x0000d795 OK
UVM_INFO ./vip/common/ahb_scoreboard.sv(72) @ 5265: uvm_test_top.env.scb [DATA_MATCH] Read addr=0x000000000000004c size=1: data=0x00008910 OK
UVM_INFO ./vip/common/ahb_scoreboard.sv(72) @ 5275: uvm_test_top.env.scb [DATA_MATCH] Read addr=0x000000000000004e size=1: data=0x0000d5e4 OK
UVM_INFO ./vip/common/ahb_scoreboard.sv(72) @ 5285: uvm_test_top.env.scb [DATA_MATCH] Read addr=0x00000000000000f0 size=1: data=0x00008a5c OK
UVM_INFO ./vip/common/ahb_scoreboard.sv(72) @ 5295: uvm_test_top.env.scb [DATA_MATCH] Read addr=0x00000000000000f2 size=1: data=0x000065ee OK
UVM_INFO ./vip/common/ahb_scoreboard.sv(72) @ 5305: uvm_test_top.env.scb [DATA_MATCH] Read addr=0x00000000000000f4 size=1: data=0x00002c42 OK
UVM_INFO ./vip/common/ahb_scoreboard.sv(72) @ 5315: uvm_test_top.env.scb [DATA_MATCH] Read addr=0x00000000000000f6 size=1: data=0x000065ee OK
UVM_INFO ./vip/common/ahb_scoreboard.sv(72) @ 5325: uvm_test_top.env.scb [DATA_MATCH] Read addr=0x00000000000000f8 size=1: data=0x000000ac OK
UVM_INFO ./vip/common/ahb_scoreboard.sv(72) @ 5335: uvm_test_top.env.scb [DATA_MATCH] Read addr=0x00000000000000fa size=1: data=0x00000041 OK
UVM_INFO ./vip/common/ahb_scoreboard.sv(72) @ 5355: uvm_test_top.env.scb [DATA_MATCH] Read addr=0x00000000000000f8 size=1: data=0x000000ac OK
UVM_INFO ./vip/common/ahb_scoreboard.sv(72) @ 5465: uvm_test_top.env.scb [DATA_MATCH] Read addr=0x0000000000000042 size=1: data=0x0000163a OK
UVM_INFO ./vip/common/ahb_scoreboard.sv(72) @ 5525: uvm_test_top.env.scb [DATA_MATCH] Read addr=0x000000000000006e size=1: data=0x0000aea8 OK
UVM_INFO ./vip/common/ahb_scoreboard.sv(72) @ 5555: uvm_test_top.env.scb [DATA_MATCH] Read addr=0x000000000000008c size=2: data=0x11c67b06 OK
UVM_INFO ./vip/common/ahb_scoreboard.sv(72) @ 5585: uvm_test_top.env.scb [DATA_MATCH] Read addr=0x00000000000000ae size=1: data=0x0000e08c OK
UVM_INFO ./vip/common/ahb_scoreboard.sv(72) @ 5595: uvm_test_top.env.scb [DATA_MATCH] Read addr=0x00000000000000b0 size=1: data=0x0000f717 OK
UVM_INFO ./vip/common/ahb_scoreboard.sv(72) @ 5605: uvm_test_top.env.scb [DATA_MATCH] Read addr=0x00000000000000b2 size=1: data=0x0000e08c OK
UVM_INFO ./vip/common/ahb_scoreboard.sv(72) @ 5615: uvm_test_top.env.scb [DATA_MATCH] Read addr=0x00000000000000b4 size=1: data=0x0000f717 OK
UVM_INFO ./vip/common/ahb_scoreboard.sv(72) @ 5625: uvm_test_top.env.scb [DATA_MATCH] Read addr=0x00000000000000b6 size=1: data=0x0000e08c OK
UVM_INFO ./vip/common/ahb_scoreboard.sv(72) @ 5635: uvm_test_top.env.scb [DATA_MATCH] Read addr=0x00000000000000b8 size=1: data=0x0000f717 OK
UVM_INFO ./vip/common/ahb_scoreboard.sv(72) @ 5645: uvm_test_top.env.scb [DATA_MATCH] Read addr=0x00000000000000ba size=1: data=0x0000e08c OK
UVM_INFO ./vip/common/ahb_scoreboard.sv(72) @ 5655: uvm_test_top.env.scb [DATA_MATCH] Read addr=0x00000000000000bc size=1: data=0x0000f717 OK
UVM_INFO ./vip/common/ahb_scoreboard.sv(72) @ 5665: uvm_test_top.env.scb [DATA_MATCH] Read addr=0x00000000000000be size=1: data=0x0000e08c OK
UVM_INFO ./vip/common/ahb_scoreboard.sv(72) @ 5675: uvm_test_top.env.scb [DATA_MATCH] Read addr=0x00000000000000c0 size=1: data=0x0000f717 OK
UVM_INFO ./vip/common/ahb_scoreboard.sv(72) @ 5685: uvm_test_top.env.scb [DATA_MATCH] Read addr=0x00000000000000c2 size=1: data=0x0000e08c OK
UVM_INFO ./vip/common/ahb_scoreboard.sv(72) @ 5695: uvm_test_top.env.scb [DATA_MATCH] Read addr=0x00000000000000c4 size=1: data=0x0000f717 OK
UVM_INFO ./vip/common/ahb_scoreboard.sv(72) @ 5705: uvm_test_top.env.scb [DATA_MATCH] Read addr=0x00000000000000c6 size=1: data=0x00005868 OK
UVM_INFO ./vip/common/ahb_scoreboard.sv(72) @ 5735: uvm_test_top.env.scb [DATA_MATCH] Read addr=0x000000000000006a size=1: data=0x0000aea8 OK
UVM_INFO ./vip/common/ahb_scoreboard.sv(72) @ 5845: uvm_test_top.env.scb [DATA_MATCH] Read addr=0x000000000000009c size=0: data=0x000000be OK
UVM_INFO ./vip/common/ahb_scoreboard.sv(72) @ 5855: uvm_test_top.env.scb [DATA_MATCH] Read addr=0x00000000000000ac size=1: data=0x0000f717 OK
UVM_INFO ./vip/common/ahb_scoreboard.sv(72) @ 5865: uvm_test_top.env.scb [DATA_MATCH] Read addr=0x0000000000000000 size=2: data=0x349d0b27 OK
UVM_INFO ./vip/common/ahb_scoreboard.sv(72) @ 5885: uvm_test_top.env.scb [DATA_MATCH] Read addr=0x0000000000000014 size=1: data=0x00002e27 OK
UVM_INFO ./vip/common/ahb_scoreboard.sv(72) @ 5895: uvm_test_top.env.scb [DATA_MATCH] Read addr=0x0000000000000016 size=1: data=0x0000349d OK
UVM_INFO ./vip/common/ahb_scoreboard.sv(72) @ 5905: uvm_test_top.env.scb [DATA_MATCH] Read addr=0x0000000000000018 size=1: data=0x00002e27 OK
UVM_INFO ./vip/common/ahb_scoreboard.sv(72) @ 5915: uvm_test_top.env.scb [DATA_MATCH] Read addr=0x000000000000001a size=1: data=0x0000349d OK
UVM_INFO ./vip/common/ahb_scoreboard.sv(72) @ 5925: uvm_test_top.env.scb [DATA_MATCH] Read addr=0x000000000000001c size=1: data=0x00002e27 OK
UVM_INFO ./vip/common/ahb_scoreboard.sv(72) @ 5935: uvm_test_top.env.scb [DATA_MATCH] Read addr=0x000000000000001e size=1: data=0x0000349d OK
UVM_INFO ./vip/common/ahb_scoreboard.sv(72) @ 5945: uvm_test_top.env.scb [DATA_MATCH] Read addr=0x0000000000000020 size=1: data=0x00002e27 OK
UVM_INFO ./vip/common/ahb_scoreboard.sv(72) @ 5955: uvm_test_top.env.scb [DATA_MATCH] Read addr=0x0000000000000022 size=1: data=0x0000349d OK
UVM_INFO ./vip/common/ahb_scoreboard.sv(72) @ 5965: uvm_test_top.env.scb [DATA_MATCH] Read addr=0x0000000000000024 size=1: data=0x00002e27 OK
UVM_INFO ./vip/common/ahb_scoreboard.sv(72) @ 5975: uvm_test_top.env.scb [DATA_MATCH] Read addr=0x0000000000000026 size=1: data=0x0000349d OK
UVM_INFO ./vip/common/ahb_scoreboard.sv(72) @ 5985: uvm_test_top.env.scb [DATA_MATCH] Read addr=0x00000000000000f8 size=1: data=0x000000ac OK
UVM_INFO ./vip/common/ahb_scoreboard.sv(72) @ 6055: uvm_test_top.env.scb [DATA_MATCH] Read addr=0x0000000000000038 size=1: data=0x00006c5b OK
UVM_INFO ./vip/common/ahb_scoreboard.sv(72) @ 6065: uvm_test_top.env.scb [DATA_MATCH] Read addr=0x00000000000000b0 size=2: data=0x46a125e2 OK
UVM_INFO ./vip/common/ahb_scoreboard.sv(72) @ 6075: uvm_test_top.env.scb [DATA_MATCH] Read addr=0x00000000000000b4 size=2: data=0xe08cf717 OK
UVM_INFO ./vip/common/ahb_scoreboard.sv(72) @ 6085: uvm_test_top.env.scb [DATA_MATCH] Read addr=0x00000000000000b8 size=2: data=0xe08cf717 OK
UVM_INFO ./vip/common/ahb_scoreboard.sv(72) @ 6095: uvm_test_top.env.scb [DATA_MATCH] Read addr=0x00000000000000bc size=2: data=0xe08cf717 OK
UVM_INFO ./vip/common/ahb_scoreboard.sv(72) @ 6105: uvm_test_top.env.scb [DATA_MATCH] Read addr=0x00000000000000c0 size=2: data=0xe08cf717 OK
UVM_INFO ./vip/common/ahb_scoreboard.sv(72) @ 6115: uvm_test_top.env.scb [DATA_MATCH] Read addr=0x00000000000000c4 size=2: data=0x5868f717 OK
UVM_INFO ./vip/common/ahb_scoreboard.sv(72) @ 6125: uvm_test_top.env.scb [DATA_MATCH] Read addr=0x00000000000000c8 size=2: data=0x58c6d706 OK
UVM_INFO ./vip/common/ahb_scoreboard.sv(72) @ 6135: uvm_test_top.env.scb [DATA_MATCH] Read addr=0x00000000000000cc size=2: data=0xe91eaeb8 OK
UVM_INFO ./vip/common/ahb_scoreboard.sv(72) @ 6145: uvm_test_top.env.scb [DATA_MATCH] Read addr=0x00000000000000d0 size=2: data=0xe91eaeb8 OK
UVM_INFO ./vip/common/ahb_scoreboard.sv(72) @ 6155: uvm_test_top.env.scb [DATA_MATCH] Read addr=0x00000000000000d4 size=2: data=0x50418301 OK
UVM_INFO ./vip/common/ahb_scoreboard.sv(72) @ 6165: uvm_test_top.env.scb [DATA_MATCH] Read addr=0x00000000000000d8 size=2: data=0x50418301 OK
UVM_INFO ./vip/common/ahb_scoreboard.sv(72) @ 6175: uvm_test_top.env.scb [DATA_MATCH] Read addr=0x0000000000000090 size=2: data=0x573b4e0c OK
UVM_INFO ./vip/common/ahb_scoreboard.sv(72) @ 6385: uvm_test_top.env.scb [DATA_MATCH] Read addr=0x0000000000000060 size=1: data=0x0000ace3 OK
UVM_INFO ./vip/common/ahb_scoreboard.sv(72) @ 6545: uvm_test_top.env.scb [DATA_MATCH] Read addr=0x00000000000000ae size=1: data=0x0000e08c OK
UVM_INFO ./vip/common/ahb_scoreboard.sv(72) @ 6725: uvm_test_top.env.scb [DATA_MATCH] Read addr=0x00000000000000bd size=0: data=0x000000f7 OK
UVM_INFO ./vip/common/ahb_scoreboard.sv(72) @ 6735: uvm_test_top.env.scb [DATA_MATCH] Read addr=0x00000000000000be size=0: data=0x0000008c OK
UVM_INFO ./vip/common/ahb_scoreboard.sv(72) @ 6745: uvm_test_top.env.scb [DATA_MATCH] Read addr=0x00000000000000bf size=0: data=0x000000e0 OK
UVM_INFO ./vip/common/ahb_scoreboard.sv(72) @ 6755: uvm_test_top.env.scb [DATA_MATCH] Read addr=0x00000000000000c0 size=0: data=0x00000017 OK
UVM_INFO ./vip/common/ahb_scoreboard.sv(72) @ 6765: uvm_test_top.env.scb [DATA_MATCH] Read addr=0x00000000000000c1 size=0: data=0x000000f7 OK
UVM_INFO ./vip/common/ahb_scoreboard.sv(72) @ 6775: uvm_test_top.env.scb [DATA_MATCH] Read addr=0x00000000000000c2 size=0: data=0x0000008c OK
UVM_INFO ./vip/common/ahb_scoreboard.sv(72) @ 6785: uvm_test_top.env.scb [DATA_MATCH] Read addr=0x00000000000000c3 size=0: data=0x000000e0 OK
UVM_INFO ./vip/common/ahb_scoreboard.sv(72) @ 6795: uvm_test_top.env.scb [DATA_MATCH] Read addr=0x00000000000000c4 size=0: data=0x000000a8 OK
UVM_INFO ./vip/common/ahb_scoreboard.sv(72) @ 6805: uvm_test_top.env.scb [DATA_MATCH] Read addr=0x00000000000000c5 size=0: data=0x0000008c OK
UVM_INFO ./vip/common/ahb_scoreboard.sv(72) @ 6815: uvm_test_top.env.scb [DATA_MATCH] Read addr=0x00000000000000c6 size=0: data=0x00000041 OK
UVM_INFO ./vip/common/ahb_scoreboard.sv(72) @ 6825: uvm_test_top.env.scb [DATA_MATCH] Read addr=0x00000000000000c7 size=0: data=0x0000008b OK
UVM_INFO ./vip/common/ahb_scoreboard.sv(72) @ 7035: uvm_test_top.env.scb [DATA_MATCH] Read addr=0x0000000000000060 size=2: data=0x6210b4a3 OK
UVM_INFO ./vip/common/ahb_scoreboard.sv(72) @ 7045: uvm_test_top.env.scb [DATA_MATCH] Read addr=0x0000000000000073 size=0: data=0x00000062 OK
UVM_INFO ./vip/common/ahb_scoreboard.sv(72) @ 7055: uvm_test_top.env.scb [DATA_MATCH] Read addr=0x00000000000000e4 size=1: data=0x00008301 OK
UVM_INFO ./vip/common/ahb_scoreboard.sv(72) @ 7175: uvm_test_top.env.scb [DATA_MATCH] Read addr=0x00000000000000d2 size=1: data=0x0000d5bf OK
UVM_INFO ./vip/common/ahb_scoreboard.sv(72) @ 7305: uvm_test_top.env.scb [DATA_MATCH] Read addr=0x00000000000000a6 size=1: data=0x0000a0e2 OK
UVM_INFO ./vip/common/ahb_scoreboard.sv(72) @ 7315: uvm_test_top.env.scb [DATA_MATCH] Read addr=0x00000000000000a8 size=1: data=0x000004d4 OK
UVM_INFO ./vip/common/ahb_scoreboard.sv(72) @ 7325: uvm_test_top.env.scb [DATA_MATCH] Read addr=0x00000000000000aa size=1: data=0x0000d557 OK
UVM_INFO ./vip/common/ahb_scoreboard.sv(72) @ 7595: uvm_test_top.env.scb [DATA_MATCH] Read addr=0x0000000000000030 size=0: data=0x00000027 OK
UVM_INFO ./vip/common/ahb_scoreboard.sv(72) @ 7605: uvm_test_top.env.scb [DATA_MATCH] Read addr=0x00000000000000ae size=1: data=0x0000e08c OK
UVM_INFO ./vip/common/ahb_scoreboard.sv(72) @ 7615: uvm_test_top.env.scb [DATA_MATCH] Read addr=0x0000000000000034 size=1: data=0x00001a06 OK
UVM_INFO ./vip/common/ahb_scoreboard.sv(72) @ 7625: uvm_test_top.env.scb [DATA_MATCH] Read addr=0x0000000000000036 size=1: data=0x0000dd7b OK
UVM_INFO ./vip/common/ahb_scoreboard.sv(72) @ 7635: uvm_test_top.env.scb [DATA_MATCH] Read addr=0x0000000000000038 size=1: data=0x00001a06 OK
UVM_INFO ./vip/common/ahb_scoreboard.sv(72) @ 7645: uvm_test_top.env.scb [DATA_MATCH] Read addr=0x000000000000003a size=1: data=0x0000dd7b OK
UVM_INFO ./vip/common/ahb_scoreboard.sv(72) @ 7655: uvm_test_top.env.scb [DATA_MATCH] Read addr=0x000000000000003c size=1: data=0x00001a06 OK
UVM_INFO ./vip/common/ahb_scoreboard.sv(72) @ 7665: uvm_test_top.env.scb [DATA_MATCH] Read addr=0x000000000000003e size=1: data=0x0000dd7b OK
UVM_INFO ./vip/common/ahb_scoreboard.sv(72) @ 7675: uvm_test_top.env.scb [DATA_MATCH] Read addr=0x0000000000000040 size=1: data=0x00001a06 OK
UVM_INFO ./vip/common/ahb_scoreboard.sv(72) @ 7685: uvm_test_top.env.scb [DATA_MATCH] Read addr=0x0000000000000042 size=1: data=0x0000dd7b OK
UVM_INFO ./vip/common/ahb_scoreboard.sv(72) @ 7695: uvm_test_top.env.scb [DATA_MATCH] Read addr=0x0000000000000044 size=1: data=0x00001a06 OK
UVM_INFO ./vip/common/ahb_scoreboard.sv(72) @ 7705: uvm_test_top.env.scb [DATA_MATCH] Read addr=0x0000000000000046 size=1: data=0x0000dd7b OK
UVM_INFO ./vip/common/ahb_scoreboard.sv(72) @ 7715: uvm_test_top.env.scb [DATA_MATCH] Read addr=0x0000000000000048 size=1: data=0x0000ace3 OK
UVM_INFO ./vip/common/ahb_scoreboard.sv(72) @ 7725: uvm_test_top.env.scb [DATA_MATCH] Read addr=0x000000000000004a size=1: data=0x00006dd6 OK
UVM_INFO ./vip/common/ahb_scoreboard.sv(72) @ 7735: uvm_test_top.env.scb [DATA_MATCH] Read addr=0x000000000000004c size=1: data=0x0000b4a3 OK
UVM_INFO ./vip/common/ahb_scoreboard.sv(72) @ 7745: uvm_test_top.env.scb [DATA_MATCH] Read addr=0x0000000000000044 size=0: data=0x00000006 OK
UVM_INFO ./vip/common/ahb_scoreboard.sv(72) @ 7755: uvm_test_top.env.scb [DATA_MATCH] Read addr=0x00000000000000a8 size=0: data=0x000000d4 OK
UVM_INFO ./vip/common/ahb_scoreboard.sv(72) @ 7795: uvm_test_top.env.scb [DATA_MATCH] Read addr=0x0000000000000027 size=0: data=0x00000090 OK
UVM_INFO ./vip/common/ahb_scoreboard.sv(72) @ 7805: uvm_test_top.env.scb [DATA_MATCH] Read addr=0x0000000000000028 size=0: data=0x00000079 OK
UVM_INFO ./vip/common/ahb_scoreboard.sv(72) @ 7815: uvm_test_top.env.scb [DATA_MATCH] Read addr=0x0000000000000029 size=0: data=0x00000064 OK
UVM_INFO ./vip/common/ahb_scoreboard.sv(72) @ 7825: uvm_test_top.env.scb [DATA_MATCH] Read addr=0x000000000000002a size=0: data=0x0000005c OK
UVM_INFO ./vip/common/ahb_scoreboard.sv(72) @ 7835: uvm_test_top.env.scb [DATA_MATCH] Read addr=0x000000000000002b size=0: data=0x00000090 OK
UVM_INFO ./vip/common/ahb_scoreboard.sv(72) @ 7845: uvm_test_top.env.scb [DATA_MATCH] Read addr=0x000000000000002c size=0: data=0x000000c0 OK
UVM_INFO ./vip/common/ahb_scoreboard.sv(72) @ 7855: uvm_test_top.env.scb [DATA_MATCH] Read addr=0x000000000000002d size=0: data=0x00000018 OK
UVM_INFO ./vip/common/ahb_scoreboard.sv(72) @ 7865: uvm_test_top.env.scb [DATA_MATCH] Read addr=0x000000000000002e size=0: data=0x000000d6 OK
UVM_INFO ./vip/common/ahb_scoreboard.sv(72) @ 7875: uvm_test_top.env.scb [DATA_MATCH] Read addr=0x000000000000002f size=0: data=0x00000026 OK
UVM_INFO ./vip/common/ahb_scoreboard.sv(72) @ 7885: uvm_test_top.env.scb [DATA_MATCH] Read addr=0x0000000000000030 size=0: data=0x00000027 OK
UVM_INFO ./vip/common/ahb_scoreboard.sv(72) @ 7895: uvm_test_top.env.scb [DATA_MATCH] Read addr=0x0000000000000031 size=0: data=0x0000002e OK
UVM_INFO ./vip/common/ahb_scoreboard.sv(72) @ 7905: uvm_test_top.env.scb [DATA_MATCH] Read addr=0x0000000000000032 size=0: data=0x0000009d OK
UVM_INFO ./vip/common/ahb_scoreboard.sv(72) @ 7915: uvm_test_top.env.scb [DATA_MATCH] Read addr=0x0000000000000033 size=0: data=0x00000034 OK
UVM_INFO ./vip/common/ahb_scoreboard.sv(72) @ 7925: uvm_test_top.env.scb [DATA_MATCH] Read addr=0x0000000000000034 size=0: data=0x00000006 OK
UVM_INFO ./vip/common/ahb_scoreboard.sv(72) @ 7935: uvm_test_top.env.scb [DATA_MATCH] Read addr=0x0000000000000035 size=0: data=0x0000001a OK
UVM_INFO ./vip/common/ahb_scoreboard.sv(72) @ 7945: uvm_test_top.env.scb [DATA_MATCH] Read addr=0x0000000000000084 size=1: data=0x0000b4a3 OK
UVM_INFO ./vip/common/ahb_scoreboard.sv(72) @ 7955: uvm_test_top.env.scb [DATA_MATCH] Read addr=0x0000000000000086 size=1: data=0x00006210 OK
UVM_INFO ./vip/common/ahb_scoreboard.sv(72) @ 7965: uvm_test_top.env.scb [DATA_MATCH] Read addr=0x0000000000000088 size=1: data=0x00006348 OK
UVM_INFO ./vip/common/ahb_scoreboard.sv(72) @ 7975: uvm_test_top.env.scb [DATA_MATCH] Read addr=0x000000000000008a size=1: data=0x0000e0a4 OK
UVM_INFO ./vip/common/ahb_scoreboard.sv(72) @ 7985: uvm_test_top.env.scb [DATA_MATCH] Read addr=0x000000000000008c size=1: data=0x00006348 OK
UVM_INFO ./vip/common/ahb_scoreboard.sv(72) @ 7995: uvm_test_top.env.scb [DATA_MATCH] Read addr=0x000000000000008e size=1: data=0x0000a0e2 OK
UVM_INFO ./vip/common/ahb_scoreboard.sv(72) @ 8005: uvm_test_top.env.scb [DATA_MATCH] Read addr=0x0000000000000090 size=1: data=0x00002904 OK
UVM_INFO ./vip/common/ahb_scoreboard.sv(72) @ 8015: uvm_test_top.env.scb [DATA_MATCH] Read addr=0x0000000000000092 size=1: data=0x0000a0e2 OK
UVM_INFO ./vip/common/ahb_scoreboard.sv(72) @ 8025: uvm_test_top.env.scb [DATA_MATCH] Read addr=0x0000000000000094 size=1: data=0x00002904 OK
UVM_INFO ./vip/common/ahb_scoreboard.sv(72) @ 8035: uvm_test_top.env.scb [DATA_MATCH] Read addr=0x0000000000000096 size=1: data=0x0000a0e2 OK
UVM_INFO ./vip/common/ahb_scoreboard.sv(72) @ 8045: uvm_test_top.env.scb [DATA_MATCH] Read addr=0x0000000000000098 size=1: data=0x00002904 OK
UVM_INFO ./vip/common/ahb_scoreboard.sv(72) @ 8055: uvm_test_top.env.scb [DATA_MATCH] Read addr=0x000000000000009a size=1: data=0x0000a0e2 OK
UVM_INFO ./vip/common/ahb_scoreboard.sv(72) @ 8065: uvm_test_top.env.scb [DATA_MATCH] Read addr=0x000000000000009c size=1: data=0x00002904 OK
UVM_INFO ./vip/common/ahb_scoreboard.sv(72) @ 8075: uvm_test_top.env.scb [DATA_MATCH] Read addr=0x000000000000009e size=1: data=0x0000a0e2 OK
UVM_INFO ./vip/common/ahb_scoreboard.sv(72) @ 8085: uvm_test_top.env.scb [DATA_MATCH] Read addr=0x00000000000000a0 size=1: data=0x00002904 OK
UVM_INFO ./vip/common/ahb_scoreboard.sv(72) @ 8095: uvm_test_top.env.scb [DATA_MATCH] Read addr=0x00000000000000a2 size=1: data=0x0000a0e2 OK
UVM_INFO ./vip/common/ahb_scoreboard.sv(72) @ 8255: uvm_test_top.env.scb [DATA_MATCH] Read addr=0x000000000000000e size=1: data=0x0000349d OK
UVM_INFO ./vip/common/ahb_scoreboard.sv(72) @ 8265: uvm_test_top.env.scb [DATA_MATCH] Read addr=0x0000000000000010 size=1: data=0x00001b79 OK
UVM_INFO ./vip/common/ahb_scoreboard.sv(72) @ 8515: uvm_test_top.env.scb [DATA_MATCH] Read addr=0x00000000000000ee size=0: data=0x00000013 OK
UVM_INFO ./vip/common/ahb_scoreboard.sv(72) @ 8525: uvm_test_top.env.scb [DATA_MATCH] Read addr=0x00000000000000c5 size=0: data=0x0000008c OK
UVM_INFO ./vip/common/ahb_scoreboard.sv(72) @ 8535: uvm_test_top.env.scb [DATA_MATCH] Read addr=0x00000000000000c6 size=0: data=0x00000041 OK
UVM_INFO ./vip/common/ahb_scoreboard.sv(72) @ 8545: uvm_test_top.env.scb [DATA_MATCH] Read addr=0x00000000000000c7 size=0: data=0x0000008b OK
UVM_INFO ./vip/common/ahb_scoreboard.sv(72) @ 8555: uvm_test_top.env.scb [DATA_MATCH] Read addr=0x00000000000000c8 size=0: data=0x000000a8 OK
UVM_INFO ./vip/common/ahb_scoreboard.sv(72) @ 8565: uvm_test_top.env.scb [DATA_MATCH] Read addr=0x00000000000000c9 size=0: data=0x0000008c OK
UVM_INFO ./vip/common/ahb_scoreboard.sv(72) @ 8575: uvm_test_top.env.scb [DATA_MATCH] Read addr=0x00000000000000ca size=0: data=0x000000cc OK
UVM_INFO ./vip/common/ahb_scoreboard.sv(72) @ 8655: uvm_test_top.env.scb [DATA_MATCH] Read addr=0x00000000000000e5 size=0: data=0x00000068 OK
UVM_INFO ./vip/common/ahb_scoreboard.sv(72) @ 8665: uvm_test_top.env.scb [DATA_MATCH] Read addr=0x00000000000000e6 size=0: data=0x00000005 OK
UVM_INFO ./vip/common/ahb_scoreboard.sv(72) @ 8675: uvm_test_top.env.scb [DATA_MATCH] Read addr=0x00000000000000ce size=1: data=0x000020cc OK
UVM_INFO ./vip/common/ahb_scoreboard.sv(72) @ 8685: uvm_test_top.env.scb [DATA_MATCH] Read addr=0x00000000000000d0 size=1: data=0x000010fb OK
UVM_INFO ./vip/common/ahb_scoreboard.sv(72) @ 8695: uvm_test_top.env.scb [DATA_MATCH] Read addr=0x00000000000000d2 size=1: data=0x0000fe50 OK
UVM_INFO ./vip/common/ahb_scoreboard.sv(72) @ 8705: uvm_test_top.env.scb [DATA_MATCH] Read addr=0x00000000000000d4 size=1: data=0x000010fb OK
UVM_INFO ./vip/common/ahb_scoreboard.sv(72) @ 8715: uvm_test_top.env.scb [DATA_MATCH] Read addr=0x00000000000000d6 size=1: data=0x0000fe50 OK
UVM_INFO ./vip/common/ahb_scoreboard.sv(72) @ 8725: uvm_test_top.env.scb [DATA_MATCH] Read addr=0x00000000000000d8 size=1: data=0x00007b60 OK
UVM_INFO ./vip/common/ahb_scoreboard.sv(72) @ 8735: uvm_test_top.env.scb [DATA_MATCH] Read addr=0x00000000000000da size=1: data=0x000020cc OK
UVM_INFO ./vip/common/ahb_scoreboard.sv(72) @ 8745: uvm_test_top.env.scb [DATA_MATCH] Read addr=0x00000000000000dc size=1: data=0x0000686e OK
UVM_INFO ./vip/common/ahb_scoreboard.sv(72) @ 8755: uvm_test_top.env.scb [DATA_MATCH] Read addr=0x00000000000000de size=1: data=0x0000fd05 OK
UVM_INFO ./vip/common/ahb_scoreboard.sv(72) @ 8765: uvm_test_top.env.scb [DATA_MATCH] Read addr=0x00000000000000e0 size=1: data=0x0000686e OK
UVM_INFO ./vip/common/ahb_scoreboard.sv(72) @ 8775: uvm_test_top.env.scb [DATA_MATCH] Read addr=0x00000000000000e2 size=1: data=0x0000fd05 OK
UVM_INFO ./vip/common/ahb_scoreboard.sv(72) @ 8785: uvm_test_top.env.scb [DATA_MATCH] Read addr=0x000000000000001a size=1: data=0x0000d606 OK
UVM_INFO ./vip/common/ahb_scoreboard.sv(72) @ 8915: uvm_test_top.env.scb [DATA_MATCH] Read addr=0x0000000000000078 size=1: data=0x00005433 OK
UVM_INFO ./vip/common/ahb_scoreboard.sv(72) @ 8935: uvm_test_top.env.scb [DATA_MATCH] Read addr=0x00000000000000ec size=1: data=0x0000686e OK
UVM_INFO ./vip/common/ahb_scoreboard.sv(72) @ 8945: uvm_test_top.env.scb [DATA_MATCH] Read addr=0x00000000000000ee size=1: data=0x0000fd05 OK
UVM_INFO ./vip/common/ahb_scoreboard.sv(72) @ 8955: uvm_test_top.env.scb [DATA_MATCH] Read addr=0x00000000000000f0 size=1: data=0x00001e67 OK
UVM_INFO ./vip/common/ahb_scoreboard.sv(72) @ 8965: uvm_test_top.env.scb [DATA_MATCH] Read addr=0x0000000000000057 size=0: data=0x00000062 OK
UVM_INFO ./vip/common/ahb_scoreboard.sv(72) @ 9005: uvm_test_top.env.scb [DATA_MATCH] Read addr=0x0000000000000042 size=1: data=0x0000dd7b OK
UVM_INFO ./vip/common/ahb_scoreboard.sv(72) @ 9015: uvm_test_top.env.scb [DATA_MATCH] Read addr=0x0000000000000085 size=0: data=0x00000054 OK
UVM_INFO ./vip/common/ahb_scoreboard.sv(72) @ 9025: uvm_test_top.env.scb [DATA_MATCH] Read addr=0x0000000000000064 size=2: data=0x002c7e3d OK
UVM_INFO ./vip/common/ahb_scoreboard.sv(72) @ 9185: uvm_test_top.env.scb [DATA_MATCH] Read addr=0x0000000000000058 size=1: data=0x0000c735 OK
UVM_INFO ./vip/common/ahb_scoreboard.sv(72) @ 9195: uvm_test_top.env.scb [DATA_MATCH] Read addr=0x000000000000005a size=1: data=0x0000a37e OK
UVM_INFO ./vip/common/ahb_scoreboard.sv(72) @ 9205: uvm_test_top.env.scb [DATA_MATCH] Read addr=0x000000000000005c size=1: data=0x0000c735 OK
UVM_INFO ./vip/common/ahb_scoreboard.sv(72) @ 9215: uvm_test_top.env.scb [DATA_MATCH] Read addr=0x000000000000005e size=1: data=0x0000a37e OK
UVM_INFO ./vip/common/ahb_scoreboard.sv(72) @ 9225: uvm_test_top.env.scb [DATA_MATCH] Read addr=0x0000000000000060 size=1: data=0x0000c735 OK
UVM_INFO ./vip/common/ahb_scoreboard.sv(72) @ 9235: uvm_test_top.env.scb [DATA_MATCH] Read addr=0x0000000000000062 size=1: data=0x0000a37e OK
UVM_INFO ./vip/common/ahb_scoreboard.sv(72) @ 9245: uvm_test_top.env.scb [DATA_MATCH] Read addr=0x0000000000000064 size=1: data=0x0000c735 OK
UVM_INFO ./vip/common/ahb_scoreboard.sv(72) @ 9255: uvm_test_top.env.scb [DATA_MATCH] Read addr=0x0000000000000066 size=1: data=0x0000a37e OK
UVM_INFO ./vip/common/ahb_scoreboard.sv(72) @ 9265: uvm_test_top.env.scb [DATA_MATCH] Read addr=0x0000000000000068 size=1: data=0x0000c735 OK
UVM_INFO ./vip/common/ahb_scoreboard.sv(72) @ 9275: uvm_test_top.env.scb [DATA_MATCH] Read addr=0x000000000000006a size=1: data=0x0000a37e OK
UVM_INFO ./vip/common/ahb_scoreboard.sv(72) @ 9285: uvm_test_top.env.scb [DATA_MATCH] Read addr=0x000000000000006c size=1: data=0x0000c735 OK
UVM_INFO ./vip/common/ahb_scoreboard.sv(72) @ 9295: uvm_test_top.env.scb [DATA_MATCH] Read addr=0x000000000000006e size=1: data=0x0000a37e OK
UVM_INFO ./vip/common/ahb_scoreboard.sv(72) @ 9305: uvm_test_top.env.scb [DATA_MATCH] Read addr=0x0000000000000070 size=1: data=0x0000c735 OK
UVM_INFO ./vip/common/ahb_scoreboard.sv(72) @ 9315: uvm_test_top.env.scb [DATA_MATCH] Read addr=0x0000000000000072 size=1: data=0x0000a37e OK
UVM_INFO ./vip/common/ahb_scoreboard.sv(72) @ 9565: uvm_test_top.env.scb [DATA_MATCH] Read addr=0x00000000000000da size=1: data=0x000020cc OK
UVM_INFO ./vip/common/ahb_scoreboard.sv(72) @ 9575: uvm_test_top.env.scb [DATA_MATCH] Read addr=0x00000000000000dc size=1: data=0x0000686e OK
UVM_INFO ./vip/common/ahb_scoreboard.sv(72) @ 9585: uvm_test_top.env.scb [DATA_MATCH] Read addr=0x00000000000000de size=1: data=0x0000fd05 OK
UVM_INFO ./vip/common/ahb_scoreboard.sv(72) @ 9595: uvm_test_top.env.scb [DATA_MATCH] Read addr=0x00000000000000e0 size=1: data=0x0000686e OK
UVM_INFO ./vip/common/ahb_scoreboard.sv(72) @ 9605: uvm_test_top.env.scb [DATA_MATCH] Read addr=0x00000000000000e2 size=1: data=0x0000fd05 OK
UVM_INFO ./vip/common/ahb_scoreboard.sv(72) @ 9615: uvm_test_top.env.scb [DATA_MATCH] Read addr=0x000000000000001c size=1: data=0x0000f9f3 OK
UVM_INFO ./vip/common/ahb_scoreboard.sv(72) @ 9695: uvm_test_top.env.scb [DATA_MATCH] Read addr=0x00000000000000eb size=0: data=0x000000fd OK
UVM_INFO ./vip/common/ahb_scoreboard.sv(72) @ 9705: uvm_test_top.env.scb [DATA_MATCH] Read addr=0x00000000000000ec size=0: data=0x0000006e OK
UVM_INFO ./vip/common/ahb_scoreboard.sv(72) @ 9715: uvm_test_top.env.scb [DATA_MATCH] Read addr=0x00000000000000ed size=0: data=0x00000068 OK
UVM_INFO ./vip/common/ahb_scoreboard.sv(72) @ 9745: uvm_test_top.env.scb [DATA_MATCH] Read addr=0x00000000000000e0 size=1: data=0x0000686e OK
UVM_INFO ./vip/common/ahb_scoreboard.sv(72) @ 9755: uvm_test_top.env.scb [DATA_MATCH] Read addr=0x00000000000000e2 size=1: data=0x0000fd05 OK
UVM_INFO ./vip/common/ahb_scoreboard.sv(72) @ 9765: uvm_test_top.env.scb [DATA_MATCH] Read addr=0x00000000000000e4 size=1: data=0x0000686e OK
UVM_INFO ./vip/common/ahb_scoreboard.sv(72) @ 9775: uvm_test_top.env.scb [DATA_MATCH] Read addr=0x00000000000000e6 size=1: data=0x0000fd05 OK
UVM_INFO ./vip/common/ahb_scoreboard.sv(72) @ 9785: uvm_test_top.env.scb [DATA_MATCH] Read addr=0x00000000000000e8 size=1: data=0x0000686e OK
UVM_INFO ./vip/common/ahb_scoreboard.sv(72) @ 9795: uvm_test_top.env.scb [DATA_MATCH] Read addr=0x00000000000000ea size=1: data=0x0000fd05 OK
UVM_INFO ./vip/common/ahb_scoreboard.sv(72) @ 9805: uvm_test_top.env.scb [DATA_MATCH] Read addr=0x00000000000000ec size=1: data=0x0000686e OK
UVM_INFO ./vip/common/ahb_scoreboard.sv(72) @ 9815: uvm_test_top.env.scb [DATA_MATCH] Read addr=0x00000000000000ee size=1: data=0x0000fd05 OK
UVM_INFO ./vip/common/ahb_scoreboard.sv(72) @ 9825: uvm_test_top.env.scb [DATA_MATCH] Read addr=0x00000000000000f0 size=1: data=0x00001e67 OK
UVM_INFO ./vip/common/ahb_scoreboard.sv(72) @ 9835: uvm_test_top.env.scb [DATA_MATCH] Read addr=0x00000000000000f2 size=1: data=0x00005313 OK
UVM_INFO ./vip/common/ahb_scoreboard.sv(72) @ 9845: uvm_test_top.env.scb [DATA_MATCH] Read addr=0x00000000000000f4 size=1: data=0x00002c42 OK
UVM_INFO ./vip/common/ahb_scoreboard.sv(72) @ 9855: uvm_test_top.env.scb [DATA_MATCH] Read addr=0x00000000000000f6 size=1: data=0x000065ee OK
UVM_INFO ./vip/common/ahb_scoreboard.sv(72) @ 9865: uvm_test_top.env.scb [DATA_MATCH] Read addr=0x00000000000000f8 size=1: data=0x000000ac OK
UVM_INFO ./vip/common/ahb_scoreboard.sv(72) @ 9875: uvm_test_top.env.scb [DATA_MATCH] Read addr=0x00000000000000fa size=1: data=0x00000041 OK
UVM_INFO ./vip/common/ahb_scoreboard.sv(72) @ 9885: uvm_test_top.env.scb [DATA_MATCH] Read addr=0x00000000000000fc size=1: data=0x00003cc8 OK
UVM_INFO ./vip/common/ahb_scoreboard.sv(72) @ 9925: uvm_test_top.env.scb [DATA_MATCH] Read addr=0x000000000000007c size=1: data=0x0000c735 OK
UVM_INFO ./vip/common/ahb_scoreboard.sv(72) @ 10115: uvm_test_top.env.scb [DATA_MATCH] Read addr=0x00000000000000e0 size=1: data=0x00002be5 OK
UVM_INFO ./vip/common/ahb_scoreboard.sv(72) @ 10135: uvm_test_top.env.scb [DATA_MATCH] Read addr=0x0000000000000054 size=0: data=0x000000a3 OK
UVM_INFO ./vip/common/ahb_scoreboard.sv(72) @ 10145: uvm_test_top.env.scb [DATA_MATCH] Read addr=0x0000000000000055 size=0: data=0x000000b4 OK
UVM_INFO ./vip/common/ahb_scoreboard.sv(72) @ 10155: uvm_test_top.env.scb [DATA_MATCH] Read addr=0x0000000000000056 size=0: data=0x00000010 OK
UVM_INFO ./vip/common/ahb_scoreboard.sv(72) @ 10185: uvm_test_top.env.scb [DATA_MATCH] Read addr=0x00000000000000da size=1: data=0x000020cc OK
UVM_INFO ./vip/common/ahb_scoreboard.sv(72) @ 10195: uvm_test_top.env.scb [DATA_MATCH] Read addr=0x00000000000000a4 size=1: data=0x0000aa09 OK
UVM_INFO ./vip/common/ahb_scoreboard.sv(72) @ 10345: uvm_test_top.env.scb [DATA_MATCH] Read addr=0x00000000000000ea size=1: data=0x00008cc7 OK
UVM_INFO ./vip/common/ahb_scoreboard.sv(72) @ 10355: uvm_test_top.env.scb [DATA_MATCH] Read addr=0x00000000000000ec size=1: data=0x00000dba OK
UVM_INFO ./vip/common/ahb_scoreboard.sv(72) @ 10365: uvm_test_top.env.scb [DATA_MATCH] Read addr=0x00000000000000ee size=1: data=0x00008cc7 OK
UVM_INFO ./vip/common/ahb_scoreboard.sv(72) @ 10375: uvm_test_top.env.scb [DATA_MATCH] Read addr=0x00000000000000f0 size=1: data=0x00001e67 OK
UVM_INFO ./vip/common/ahb_scoreboard.sv(72) @ 10385: uvm_test_top.env.scb [DATA_MATCH] Read addr=0x00000000000000f2 size=1: data=0x00005313 OK
UVM_INFO ./vip/common/ahb_scoreboard.sv(72) @ 10395: uvm_test_top.env.scb [DATA_MATCH] Read addr=0x00000000000000f4 size=1: data=0x00002c42 OK
UVM_INFO ./vip/common/ahb_scoreboard.sv(72) @ 10405: uvm_test_top.env.scb [DATA_MATCH] Read addr=0x00000000000000f6 size=1: data=0x000065ee OK
UVM_INFO ./vip/common/ahb_scoreboard.sv(72) @ 10415: uvm_test_top.env.scb [DATA_MATCH] Read addr=0x00000000000000f8 size=1: data=0x000000ac OK
UVM_INFO ./vip/common/ahb_scoreboard.sv(72) @ 10425: uvm_test_top.env.scb [DATA_MATCH] Read addr=0x00000000000000fa size=1: data=0x00000041 OK
UVM_INFO ./vip/common/ahb_scoreboard.sv(72) @ 10435: uvm_test_top.env.scb [DATA_MATCH] Read addr=0x00000000000000f4 size=2: data=0x65ee2c42 OK
UVM_INFO ./vip/common/ahb_scoreboard.sv(72) @ 10455: uvm_test_top.env.scb [DATA_MATCH] Read addr=0x000000000000003e size=1: data=0x0000dd7b OK
UVM_INFO ./vip/common/ahb_scoreboard.sv(72) @ 10475: uvm_test_top.env.scb [DATA_MATCH] Read addr=0x0000000000000036 size=1: data=0x00005cd0 OK
UVM_INFO ./vip/common/ahb_scoreboard.sv(72) @ 10485: uvm_test_top.env.scb [DATA_MATCH] Read addr=0x00000000000000cc size=2: data=0x20cc7b60 OK
UVM_INFO ./vip/common/ahb_scoreboard.sv(72) @ 10495: uvm_test_top.env.scb [DATA_MATCH] Read addr=0x00000000000000d0 size=2: data=0x695010fb OK
UVM_INFO ./vip/common/ahb_scoreboard.sv(72) @ 10505: uvm_test_top.env.scb [DATA_MATCH] Read addr=0x00000000000000d4 size=2: data=0xfe5010fb OK
UVM_INFO ./vip/common/ahb_scoreboard.sv(72) @ 10515: uvm_test_top.env.scb [DATA_MATCH] Read addr=0x00000000000000d8 size=2: data=0x20cc7b60 OK
UVM_INFO ./vip/common/ahb_scoreboard.sv(72) @ 10525: uvm_test_top.env.scb [DATA_MATCH] Read addr=0x00000000000000dc size=2: data=0xfd05686e OK
UVM_INFO ./vip/common/ahb_scoreboard.sv(72) @ 10535: uvm_test_top.env.scb [DATA_MATCH] Read addr=0x00000000000000e0 size=2: data=0x3e08fd3f OK
UVM_INFO ./vip/common/ahb_scoreboard.sv(72) @ 10545: uvm_test_top.env.scb [DATA_MATCH] Read addr=0x00000000000000e4 size=2: data=0xa8e19720 OK
UVM_INFO ./vip/common/ahb_scoreboard.sv(72) @ 10555: uvm_test_top.env.scb [DATA_MATCH] Read addr=0x00000000000000e8 size=2: data=0x8cc70dba OK
UVM_INFO ./vip/common/ahb_scoreboard.sv(72) @ 10565: uvm_test_top.env.scb [DATA_MATCH] Read addr=0x00000000000000ec size=2: data=0x8cc70dba OK
UVM_INFO ./vip/common/ahb_scoreboard.sv(72) @ 10575: uvm_test_top.env.scb [DATA_MATCH] Read addr=0x00000000000000f0 size=2: data=0x53131e67 OK
UVM_INFO ./vip/common/ahb_scoreboard.sv(72) @ 10685: uvm_test_top.env.scb [DATA_MATCH] Read addr=0x00000000000000b4 size=2: data=0xae8cf717 OK
UVM_INFO ./vip/common/ahb_scoreboard.sv(72) @ 10695: uvm_test_top.env.scb [DATA_MATCH] Read addr=0x0000000000000008 size=1: data=0x00002e27 OK
UVM_INFO ./vip/common/ahb_scoreboard.sv(72) @ 10705: uvm_test_top.env.scb [DATA_MATCH] Read addr=0x00000000000000b6 size=1: data=0x0000ae8c OK
UVM_INFO ./vip/common/ahb_scoreboard.sv(72) @ 10715: uvm_test_top.env.scb [DATA_MATCH] Read addr=0x00000000000000b4 size=2: data=0xae8cf717 OK
UVM_INFO ./vip/common/ahb_scoreboard.sv(72) @ 10725: uvm_test_top.env.scb [DATA_MATCH] Read addr=0x00000000000000b8 size=2: data=0xe08cf717 OK
UVM_INFO ./vip/common/ahb_scoreboard.sv(72) @ 10735: uvm_test_top.env.scb [DATA_MATCH] Read addr=0x00000000000000bc size=2: data=0xe08cf717 OK
UVM_INFO ./vip/common/ahb_scoreboard.sv(72) @ 10745: uvm_test_top.env.scb [DATA_MATCH] Read addr=0x00000000000000c0 size=2: data=0xe08cf717 OK
UVM_INFO ./vip/common/ahb_scoreboard.sv(72) @ 10755: uvm_test_top.env.scb [DATA_MATCH] Read addr=0x00000000000000c4 size=2: data=0x8b418ca8 OK
UVM_INFO ./vip/common/ahb_scoreboard.sv(72) @ 10765: uvm_test_top.env.scb [DATA_MATCH] Read addr=0x00000000000000c8 size=2: data=0x20cc8ca8 OK
UVM_INFO ./vip/common/ahb_scoreboard.sv(72) @ 10775: uvm_test_top.env.scb [DATA_MATCH] Read addr=0x00000000000000cc size=2: data=0x20cc7b60 OK
UVM_INFO ./vip/common/ahb_scoreboard.sv(72) @ 10785: uvm_test_top.env.scb [DATA_MATCH] Read addr=0x00000000000000d0 size=2: data=0x695010fb OK
UVM_INFO ./vip/common/ahb_scoreboard.sv(72) @ 10795: uvm_test_top.env.scb [DATA_MATCH] Read addr=0x00000000000000d4 size=2: data=0xfe5010fb OK
UVM_INFO ./vip/common/ahb_scoreboard.sv(72) @ 10805: uvm_test_top.env.scb [DATA_MATCH] Read addr=0x00000000000000d8 size=2: data=0x20cc7b60 OK
UVM_INFO ./vip/common/ahb_scoreboard.sv(72) @ 10815: uvm_test_top.env.scb [DATA_MATCH] Read addr=0x00000000000000dc size=2: data=0xfd05686e OK
UVM_INFO ./vip/common/ahb_scoreboard.sv(72) @ 10825: uvm_test_top.env.scb [DATA_MATCH] Read addr=0x00000000000000e0 size=2: data=0x3e08fd3f OK
UVM_INFO ./vip/common/ahb_scoreboard.sv(72) @ 10835: uvm_test_top.env.scb [DATA_MATCH] Read addr=0x00000000000000e4 size=2: data=0xa8e19720 OK
UVM_INFO ./vip/common/ahb_scoreboard.sv(72) @ 10845: uvm_test_top.env.scb [DATA_MATCH] Read addr=0x000000000000006c size=2: data=0x62cabac2 OK
UVM_INFO ./vip/common/ahb_scoreboard.sv(72) @ 10875: uvm_test_top.env.scb [DATA_MATCH] Read addr=0x0000000000000024 size=2: data=0x905c6479 OK
UVM_INFO ./vip/common/ahb_scoreboard.sv(72) @ 10885: uvm_test_top.env.scb [DATA_MATCH] Read addr=0x0000000000000021 size=0: data=0x00000064 OK
UVM_INFO ./vip/common/ahb_scoreboard.sv(72) @ 10895: uvm_test_top.env.scb [DATA_MATCH] Read addr=0x0000000000000022 size=0: data=0x0000005c OK
UVM_INFO ./vip/common/ahb_scoreboard.sv(72) @ 10905: uvm_test_top.env.scb [DATA_MATCH] Read addr=0x0000000000000023 size=0: data=0x00000090 OK
UVM_INFO ./vip/common/ahb_scoreboard.sv(72) @ 10915: uvm_test_top.env.scb [DATA_MATCH] Read addr=0x0000000000000024 size=0: data=0x00000079 OK
UVM_INFO ./vip/common/ahb_scoreboard.sv(72) @ 10925: uvm_test_top.env.scb [DATA_MATCH] Read addr=0x0000000000000025 size=0: data=0x00000064 OK
UVM_INFO ./vip/common/ahb_scoreboard.sv(72) @ 10935: uvm_test_top.env.scb [DATA_MATCH] Read addr=0x0000000000000026 size=0: data=0x0000005c OK
UVM_INFO ./vip/common/ahb_scoreboard.sv(72) @ 10945: uvm_test_top.env.scb [DATA_MATCH] Read addr=0x0000000000000027 size=0: data=0x00000090 OK
UVM_INFO ./vip/common/ahb_scoreboard.sv(72) @ 10955: uvm_test_top.env.scb [DATA_MATCH] Read addr=0x0000000000000028 size=0: data=0x00000079 OK
UVM_INFO ./vip/common/ahb_scoreboard.sv(72) @ 10965: uvm_test_top.env.scb [DATA_MATCH] Read addr=0x0000000000000029 size=0: data=0x00000064 OK
UVM_INFO ./vip/common/ahb_scoreboard.sv(72) @ 10975: uvm_test_top.env.scb [DATA_MATCH] Read addr=0x000000000000000a size=1: data=0x0000349d OK
UVM_INFO ./vip/common/ahb_scoreboard.sv(72) @ 10985: uvm_test_top.env.scb [DATA_MATCH] Read addr=0x000000000000000c size=1: data=0x00002e27 OK
UVM_INFO ./vip/common/ahb_scoreboard.sv(72) @ 10995: uvm_test_top.env.scb [DATA_MATCH] Read addr=0x000000000000000e size=1: data=0x0000349d OK
UVM_INFO ./vip/common/ahb_scoreboard.sv(72) @ 11005: uvm_test_top.env.scb [DATA_MATCH] Read addr=0x0000000000000010 size=1: data=0x00001b79 OK
UVM_INFO ./vip/common/ahb_scoreboard.sv(72) @ 11015: uvm_test_top.env.scb [DATA_MATCH] Read addr=0x0000000000000012 size=1: data=0x0000645f OK
UVM_INFO ./vip/common/ahb_scoreboard.sv(72) @ 11025: uvm_test_top.env.scb [DATA_MATCH] Read addr=0x0000000000000014 size=1: data=0x0000bdf3 OK
UVM_INFO ./vip/common/ahb_scoreboard.sv(72) @ 11035: uvm_test_top.env.scb [DATA_MATCH] Read addr=0x0000000000000016 size=1: data=0x000010ed OK
UVM_INFO ./vip/common/ahb_scoreboard.sv(72) @ 11045: uvm_test_top.env.scb [DATA_MATCH] Read addr=0x0000000000000018 size=1: data=0x0000f9f3 OK
UVM_INFO ./vip/common/ahb_scoreboard.sv(72) @ 11055: uvm_test_top.env.scb [DATA_MATCH] Read addr=0x000000000000001a size=1: data=0x0000d606 OK
UVM_INFO ./vip/common/ahb_scoreboard.sv(72) @ 11065: uvm_test_top.env.scb [DATA_MATCH] Read addr=0x000000000000001c size=1: data=0x0000fbf3 OK
UVM_INFO ./vip/common/ahb_scoreboard.sv(72) @ 11075: uvm_test_top.env.scb [DATA_MATCH] Read addr=0x000000000000001e size=1: data=0x00009024 OK
UVM_INFO ./vip/common/ahb_scoreboard.sv(72) @ 11085: uvm_test_top.env.scb [DATA_MATCH] Read addr=0x0000000000000020 size=1: data=0x00006479 OK
UVM_INFO ./vip/common/ahb_scoreboard.sv(72) @ 11095: uvm_test_top.env.scb [DATA_MATCH] Read addr=0x0000000000000022 size=1: data=0x0000905c OK
UVM_INFO ./vip/common/ahb_scoreboard.sv(72) @ 11105: uvm_test_top.env.scb [DATA_MATCH] Read addr=0x0000000000000024 size=1: data=0x00006479 OK
UVM_INFO ./vip/common/ahb_scoreboard.sv(72) @ 11215: uvm_test_top.env.scb [DATA_MATCH] Read addr=0x00000000000000e7 size=0: data=0x000000a8 OK
UVM_INFO ./vip/common/ahb_scoreboard.sv(72) @ 11225: uvm_test_top.env.scb [DATA_MATCH] Read addr=0x00000000000000bc size=2: data=0xe08cf717 OK
UVM_INFO ./vip/common/ahb_scoreboard.sv(72) @ 11235: uvm_test_top.env.scb [DATA_MATCH] Read addr=0x00000000000000c0 size=2: data=0xe08cf717 OK
UVM_INFO ./vip/common/ahb_scoreboard.sv(72) @ 11245: uvm_test_top.env.scb [DATA_MATCH] Read addr=0x00000000000000c4 size=2: data=0x8b418ca8 OK
UVM_INFO ./vip/common/ahb_scoreboard.sv(72) @ 11255: uvm_test_top.env.scb [DATA_MATCH] Read addr=0x00000000000000c8 size=2: data=0x20e08ca8 OK
UVM_INFO ./vip/common/ahb_scoreboard.sv(72) @ 11265: uvm_test_top.env.scb [DATA_MATCH] Read addr=0x00000000000000cc size=2: data=0x20cc7b60 OK
UVM_INFO ./vip/common/ahb_scoreboard.sv(72) @ 11275: uvm_test_top.env.scb [DATA_MATCH] Read addr=0x00000000000000d0 size=2: data=0x695010fb OK
UVM_INFO ./vip/common/ahb_scoreboard.sv(72) @ 11285: uvm_test_top.env.scb [DATA_MATCH] Read addr=0x00000000000000d4 size=2: data=0xfe5010fb OK
UVM_INFO ./vip/common/ahb_scoreboard.sv(72) @ 11295: uvm_test_top.env.scb [DATA_MATCH] Read addr=0x00000000000000d8 size=2: data=0x20cc7b60 OK
UVM_INFO ./vip/common/ahb_scoreboard.sv(72) @ 11305: uvm_test_top.env.scb [DATA_MATCH] Read addr=0xfffffffffffffff2 size=1: data=0x00000000 OK
UVM_INFO ./vip/common/ahb_scoreboard.sv(72) @ 11315: uvm_test_top.env.scb [DATA_MATCH] Read addr=0xfffffffffffffff4 size=1: data=0x00000000 OK
UVM_INFO ./vip/common/ahb_scoreboard.sv(72) @ 11325: uvm_test_top.env.scb [DATA_MATCH] Read addr=0xfffffffffffffff6 size=1: data=0x00000000 OK
UVM_INFO ./vip/common/ahb_scoreboard.sv(72) @ 11335: uvm_test_top.env.scb [DATA_MATCH] Read addr=0xfffffffffffffff8 size=1: data=0x00000000 OK
UVM_INFO ./vip/common/ahb_scoreboard.sv(72) @ 11345: uvm_test_top.env.scb [DATA_MATCH] Read addr=0xfffffffffffffffa size=1: data=0x00000000 OK
UVM_INFO ./vip/common/ahb_scoreboard.sv(72) @ 11355: uvm_test_top.env.scb [DATA_MATCH] Read addr=0xfffffffffffffffc size=1: data=0x00000000 OK
UVM_INFO ./vip/common/ahb_scoreboard.sv(72) @ 11365: uvm_test_top.env.scb [DATA_MATCH] Read addr=0xfffffffffffffffe size=1: data=0x00000000 OK
UVM_INFO ./vip/common/ahb_scoreboard.sv(72) @ 11375: uvm_test_top.env.scb [DATA_MATCH] Read addr=0x0000000000000000 size=1: data=0x00000b27 OK
UVM_INFO ./vip/common/ahb_scoreboard.sv(72) @ 11385: uvm_test_top.env.scb [DATA_MATCH] Read addr=0x0000000000000064 size=2: data=0xfab042b0 OK
UVM_INFO ./vip/common/ahb_scoreboard.sv(72) @ 11395: uvm_test_top.env.scb [DATA_MATCH] Read addr=0x00000000000000c0 size=1: data=0x0000f717 OK
UVM_INFO ./vip/common/ahb_scoreboard.sv(72) @ 11405: uvm_test_top.env.scb [DATA_MATCH] Read addr=0x00000000000000d7 size=0: data=0x000000fe OK
UVM_INFO ./vip/common/ahb_scoreboard.sv(72) @ 11575: uvm_test_top.env.scb [DATA_MATCH] Read addr=0x0000000000000028 size=2: data=0x905c6479 OK
UVM_INFO ./vip/common/ahb_scoreboard.sv(72) @ 11595: uvm_test_top.env.scb [DATA_MATCH] Read addr=0x000000000000002c size=1: data=0x000018c0 OK
UVM_INFO ./vip/common/ahb_scoreboard.sv(72) @ 11605: uvm_test_top.env.scb [DATA_MATCH] Read addr=0x000000000000002e size=1: data=0x0000e475 OK
UVM_INFO ./vip/common/ahb_scoreboard.sv(72) @ 11615: uvm_test_top.env.scb [DATA_MATCH] Read addr=0x0000000000000056 size=0: data=0x000000b0 OK
UVM_INFO ./vip/common/ahb_scoreboard.sv(72) @ 11625: uvm_test_top.env.scb [DATA_MATCH] Read addr=0x000000000000000c size=1: data=0x00002e27 OK
UVM_INFO ./vip/common/ahb_scoreboard.sv(72) @ 11635: uvm_test_top.env.scb [DATA_MATCH] Read addr=0x000000000000000e size=1: data=0x0000349d OK
UVM_INFO ./vip/common/ahb_scoreboard.sv(72) @ 11645: uvm_test_top.env.scb [DATA_MATCH] Read addr=0x0000000000000010 size=1: data=0x00001b79 OK
UVM_INFO ./vip/common/ahb_scoreboard.sv(72) @ 11655: uvm_test_top.env.scb [DATA_MATCH] Read addr=0x0000000000000012 size=1: data=0x0000384d OK
UVM_INFO ./vip/common/ahb_scoreboard.sv(72) @ 11665: uvm_test_top.env.scb [DATA_MATCH] Read addr=0x0000000000000014 size=1: data=0x0000bdf3 OK
UVM_INFO ./vip/common/ahb_scoreboard.sv(72) @ 11675: uvm_test_top.env.scb [DATA_MATCH] Read addr=0x000000000000000b size=0: data=0x00000034 OK
UVM_INFO ./vip/common/ahb_scoreboard.sv(72) @ 11685: uvm_test_top.env.scb [DATA_MATCH] Read addr=0x000000000000000c size=0: data=0x00000027 OK
UVM_INFO ./vip/common/ahb_scoreboard.sv(72) @ 11695: uvm_test_top.env.scb [DATA_MATCH] Read addr=0x000000000000000d size=0: data=0x0000002e OK
UVM_INFO ./vip/common/ahb_scoreboard.sv(72) @ 11705: uvm_test_top.env.scb [DATA_MATCH] Read addr=0x000000000000000e size=0: data=0x0000009d OK
UVM_INFO ./vip/common/ahb_scoreboard.sv(72) @ 11715: uvm_test_top.env.scb [DATA_MATCH] Read addr=0x000000000000000f size=0: data=0x00000034 OK
UVM_INFO ./vip/common/ahb_scoreboard.sv(72) @ 11725: uvm_test_top.env.scb [DATA_MATCH] Read addr=0x0000000000000010 size=0: data=0x00000079 OK
UVM_INFO ./vip/common/ahb_scoreboard.sv(72) @ 11735: uvm_test_top.env.scb [DATA_MATCH] Read addr=0x0000000000000011 size=0: data=0x0000001b OK
UVM_INFO ./vip/common/ahb_scoreboard.sv(72) @ 11745: uvm_test_top.env.scb [DATA_MATCH] Read addr=0x0000000000000012 size=0: data=0x0000004d OK
UVM_INFO ./vip/common/ahb_scoreboard.sv(72) @ 11755: uvm_test_top.env.scb [DATA_MATCH] Read addr=0x0000000000000013 size=0: data=0x00000038 OK
UVM_INFO ./vip/common/ahb_scoreboard.sv(72) @ 11765: uvm_test_top.env.scb [DATA_MATCH] Read addr=0x0000000000000014 size=0: data=0x000000f3 OK
UVM_INFO ./vip/common/ahb_scoreboard.sv(72) @ 11775: uvm_test_top.env.scb [DATA_MATCH] Read addr=0x0000000000000015 size=0: data=0x000000bd OK
UVM_INFO ./vip/common/ahb_scoreboard.sv(72) @ 11785: uvm_test_top.env.scb [DATA_MATCH] Read addr=0x00000000000000c4 size=2: data=0x8b418ca8 OK
UVM_INFO ./vip/common/ahb_scoreboard.sv(72) @ 11795: uvm_test_top.env.scb [DATA_MATCH] Read addr=0x0000000000000078 size=2: data=0x62cabac2 OK
UVM_INFO ./vip/common/ahb_scoreboard.sv(72) @ 11815: uvm_test_top.env.scb [DATA_MATCH] Read addr=0x000000000000008c size=2: data=0xaaf4e7b8 OK
UVM_INFO ./vip/common/ahb_scoreboard.sv(72) @ 11825: uvm_test_top.env.scb [DATA_MATCH] Read addr=0x0000000000000090 size=2: data=0xe02ac735 OK
UVM_INFO ./vip/common/ahb_scoreboard.sv(72) @ 11835: uvm_test_top.env.scb [DATA_MATCH] Read addr=0x0000000000000094 size=2: data=0xe02ac7b8 OK
UVM_INFO ./vip/common/ahb_scoreboard.sv(72) @ 11845: uvm_test_top.env.scb [DATA_MATCH] Read addr=0x0000000000000098 size=2: data=0xe02ac7b8 OK
UVM_INFO ./vip/common/ahb_scoreboard.sv(72) @ 11855: uvm_test_top.env.scb [DATA_MATCH] Read addr=0x000000000000009c size=2: data=0xe02ac7b8 OK
UVM_INFO ./vip/common/ahb_scoreboard.sv(72) @ 11865: uvm_test_top.env.scb [DATA_MATCH] Read addr=0x00000000000000a0 size=2: data=0xe02ac7b8 OK
UVM_INFO ./vip/common/ahb_scoreboard.sv(72) @ 11875: uvm_test_top.env.scb [DATA_MATCH] Read addr=0x00000000000000a4 size=2: data=0xbdbdc7b8 OK
UVM_INFO ./vip/common/ahb_scoreboard.sv(72) @ 11885: uvm_test_top.env.scb [DATA_MATCH] Read addr=0x00000000000000a8 size=2: data=0xd55704d4 OK
UVM_INFO ./vip/common/ahb_scoreboard.sv(72) @ 11895: uvm_test_top.env.scb [DATA_MATCH] Read addr=0x00000000000000ac size=2: data=0xe08cf717 OK
UVM_INFO ./vip/common/ahb_scoreboard.sv(72) @ 11905: uvm_test_top.env.scb [DATA_MATCH] Read addr=0x00000000000000b0 size=2: data=0x46a125e2 OK
UVM_INFO ./vip/common/ahb_scoreboard.sv(72) @ 11915: uvm_test_top.env.scb [DATA_MATCH] Read addr=0x00000000000000b0 size=2: data=0x46a125e2 OK
UVM_INFO ./vip/common/ahb_scoreboard.sv(72) @ 11925: uvm_test_top.env.scb [DATA_MATCH] Read addr=0x00000000000000b4 size=2: data=0xae8cf722 OK
UVM_INFO ./vip/common/ahb_scoreboard.sv(72) @ 11935: uvm_test_top.env.scb [DATA_MATCH] Read addr=0x00000000000000b8 size=2: data=0xe08cf717 OK
UVM_INFO ./vip/common/ahb_scoreboard.sv(72) @ 11945: uvm_test_top.env.scb [DATA_MATCH] Read addr=0x00000000000000bc size=2: data=0xe08cf717 OK
UVM_INFO ./vip/common/ahb_scoreboard.sv(72) @ 11955: uvm_test_top.env.scb [DATA_MATCH] Read addr=0x00000000000000c0 size=2: data=0xe08cf717 OK
UVM_INFO ./vip/common/ahb_scoreboard.sv(72) @ 11965: uvm_test_top.env.scb [DATA_MATCH] Read addr=0x00000000000000c4 size=2: data=0x8b418ca8 OK
UVM_INFO ./vip/common/ahb_scoreboard.sv(72) @ 11975: uvm_test_top.env.scb [DATA_MATCH] Read addr=0x0000000000000030 size=0: data=0x00000027 OK
UVM_INFO ./vip/common/ahb_scoreboard.sv(72) @ 11985: uvm_test_top.env.scb [DATA_MATCH] Read addr=0x0000000000000031 size=0: data=0x0000002e OK
UVM_INFO ./vip/common/ahb_scoreboard.sv(72) @ 11995: uvm_test_top.env.scb [DATA_MATCH] Read addr=0x0000000000000032 size=0: data=0x0000009d OK
UVM_INFO ./vip/common/ahb_scoreboard.sv(72) @ 12005: uvm_test_top.env.scb [DATA_MATCH] Read addr=0x0000000000000033 size=0: data=0x00000034 OK
UVM_INFO ./vip/common/ahb_scoreboard.sv(72) @ 12015: uvm_test_top.env.scb [DATA_MATCH] Read addr=0x0000000000000034 size=0: data=0x000000f6 OK
UVM_INFO ./vip/common/ahb_scoreboard.sv(72) @ 12025: uvm_test_top.env.scb [DATA_MATCH] Read addr=0x0000000000000035 size=0: data=0x0000003c OK
UVM_INFO ./vip/common/ahb_scoreboard.sv(72) @ 12035: uvm_test_top.env.scb [DATA_MATCH] Read addr=0x0000000000000036 size=0: data=0x000000d0 OK
UVM_INFO ./vip/common/ahb_scoreboard.sv(72) @ 12045: uvm_test_top.env.scb [DATA_MATCH] Read addr=0x0000000000000037 size=0: data=0x0000005c OK
UVM_INFO ./vip/common/ahb_scoreboard.sv(72) @ 12055: uvm_test_top.env.scb [DATA_MATCH] Read addr=0x00000000000000bc size=0: data=0x00000017 OK
UVM_INFO ./vip/common/ahb_scoreboard.sv(72) @ 12065: uvm_test_top.env.scb [DATA_MATCH] Read addr=0x00000000000000bd size=0: data=0x000000f7 OK
UVM_INFO ./vip/common/ahb_scoreboard.sv(72) @ 12075: uvm_test_top.env.scb [DATA_MATCH] Read addr=0x00000000000000be size=0: data=0x0000008c OK
UVM_INFO ./vip/common/ahb_scoreboard.sv(72) @ 12085: uvm_test_top.env.scb [DATA_MATCH] Read addr=0x00000000000000bf size=0: data=0x000000e0 OK
UVM_INFO ./vip/common/ahb_scoreboard.sv(72) @ 12095: uvm_test_top.env.scb [DATA_MATCH] Read addr=0x00000000000000c0 size=0: data=0x00000017 OK
UVM_INFO ./vip/common/ahb_scoreboard.sv(72) @ 12105: uvm_test_top.env.scb [DATA_MATCH] Read addr=0x00000000000000c1 size=0: data=0x000000f7 OK
UVM_INFO ./vip/common/ahb_scoreboard.sv(72) @ 12115: uvm_test_top.env.scb [DATA_MATCH] Read addr=0x00000000000000c2 size=0: data=0x0000008c OK
UVM_INFO ./vip/common/ahb_scoreboard.sv(72) @ 12125: uvm_test_top.env.scb [DATA_MATCH] Read addr=0x00000000000000c3 size=0: data=0x000000e0 OK
UVM_INFO ./vip/common/ahb_scoreboard.sv(72) @ 12135: uvm_test_top.env.scb [DATA_MATCH] Read addr=0x00000000000000c4 size=0: data=0x000000a8 OK
UVM_INFO ./vip/common/ahb_scoreboard.sv(72) @ 12145: uvm_test_top.env.scb [DATA_MATCH] Read addr=0x00000000000000c5 size=0: data=0x0000008c OK
UVM_INFO ./vip/common/ahb_scoreboard.sv(72) @ 12355: uvm_test_top.env.scb [DATA_MATCH] Read addr=0x00000000000000ca size=1: data=0x000020e0 OK
UVM_INFO ./vip/common/ahb_scoreboard.sv(72) @ 12455: uvm_test_top.env.scb [DATA_MATCH] Read addr=0x000000000000002e size=1: data=0x0000e475 OK
UVM_INFO ./vip/common/ahb_scoreboard.sv(72) @ 12465: uvm_test_top.env.scb [DATA_MATCH] Read addr=0x0000000000000030 size=1: data=0x00002e27 OK
UVM_INFO ./vip/common/ahb_scoreboard.sv(72) @ 12475: uvm_test_top.env.scb [DATA_MATCH] Read addr=0x0000000000000032 size=1: data=0x0000349d OK
UVM_INFO ./vip/common/ahb_scoreboard.sv(72) @ 12485: uvm_test_top.env.scb [DATA_MATCH] Read addr=0x0000000000000034 size=1: data=0x00003cf6 OK
UVM_INFO ./vip/common/ahb_scoreboard.sv(72) @ 12495: uvm_test_top.env.scb [DATA_MATCH] Read addr=0x0000000000000036 size=1: data=0x00005cd0 OK
UVM_INFO ./vip/common/ahb_scoreboard.sv(72) @ 12505: uvm_test_top.env.scb [DATA_MATCH] Read addr=0x0000000000000038 size=1: data=0x00001a06 OK
UVM_INFO ./vip/common/ahb_scoreboard.sv(72) @ 12515: uvm_test_top.env.scb [DATA_MATCH] Read addr=0x000000000000003a size=1: data=0x0000dd7b OK
UVM_INFO ./vip/common/ahb_scoreboard.sv(72) @ 12525: uvm_test_top.env.scb [DATA_MATCH] Read addr=0x000000000000003c size=1: data=0x00001a06 OK
UVM_INFO ./vip/common/ahb_scoreboard.sv(72) @ 12535: uvm_test_top.env.scb [DATA_MATCH] Read addr=0x000000000000003e size=1: data=0x0000dd7b OK
UVM_INFO ./vip/common/ahb_scoreboard.sv(72) @ 12545: uvm_test_top.env.scb [DATA_MATCH] Read addr=0x0000000000000040 size=1: data=0x00001a06 OK
UVM_INFO ./vip/common/ahb_scoreboard.sv(72) @ 12555: uvm_test_top.env.scb [DATA_MATCH] Read addr=0x0000000000000042 size=1: data=0x0000dd7b OK
UVM_INFO ./vip/common/ahb_scoreboard.sv(72) @ 12565: uvm_test_top.env.scb [DATA_MATCH] Read addr=0x0000000000000044 size=1: data=0x00001a06 OK
UVM_INFO ./vip/common/ahb_scoreboard.sv(72) @ 12575: uvm_test_top.env.scb [DATA_MATCH] Read addr=0x0000000000000046 size=1: data=0x0000dd7b OK
UVM_INFO ./vip/common/ahb_scoreboard.sv(72) @ 12585: uvm_test_top.env.scb [DATA_MATCH] Read addr=0x0000000000000048 size=1: data=0x0000ace3 OK
